(1631416514.717133) can0 0D2#0000FFFF10000000
(1631416514.717133) can0 0D3#0006E00F000011
(1631416514.717134) can0 0D4#0000000000000000
(1631416514.718186) can0 25C#2500000000000000
(1631416514.719153) can0 140#00C20643000009A1
(1631416514.720054) can0 141#7326102703C32703
(1631416514.721171) can0 002#005A700DD7000000
(1631416514.722193) can0 156#010000000000001A
(1631416514.722194) can0 3D1#E210000075000006
(1631416514.726969) can0 152#E96C00000000108C
(1631416514.727972) can0 376#FA03
(1631416514.728878) can0 140#00C3FD4200000921
(1631416514.730010) can0 141#7326102704832703
(1631416514.730010) can0 144#C000951503288806
(1631416514.731043) can0 002#005A700FD9000000
(1631416514.732030) can0 280#030F100000000000
(1631416514.736052) can0 0D0#A8FF00000000FF01
(1631416514.737171) can0 0D1#00002000
(1631416514.737171) can0 0D2#0000FFFF10000000
(1631416514.737172) can0 0D3#0006E00F000012
(1631416514.737172) can0 0D4#0000000000000000
(1631416514.738935) can0 140#00C4FD42000009A1
(1631416514.740022) can0 141#7326102703C32703
(1631416514.740023) can0 360#AA01007F15469100
(1631416514.740023) can0 361#002200D808000000
(1631416514.741124) can0 002#005A7001CB000000
(1631416514.742090) can0 156#010000000000001A
(1631416514.747027) can0 152#E17C00000000108C
(1631416514.748938) can0 140#00C5FD4200000921
(1631416514.748940) can0 141#7326102702832703
(1631416514.750165) can0 144#C001971503288806
(1631416514.751210) can0 002#005A7003CD000000
(1631416514.752084) can0 280#0300100000000000
(1631416514.756165) can0 0D0#A8FF00000000FF01
(1631416514.757229) can0 0D1#00002000
(1631416514.757230) can0 0D2#0000FFFF10000000
(1631416514.757230) can0 0D3#8006E00F000013
(1631416514.757231) can0 0D4#0000000000000000
(1631416514.758975) can0 140#00C6FD4200000921
(1631416514.760022) can0 141#7326102701832703
(1631416514.760023) can0 378#4100000000000000
(1631416514.760963) can0 002#005A7005CF000000
(1631416514.761961) can0 156#010000000000001A
(1631416514.761962) can0 282#9FD0008E91C02A04
(1631416514.761963) can0 6D0#0000000000000000
(1631416514.762972) can0 372#0040000000000000
(1631416514.767025) can0 152#E18C00000000108C
(1631416514.767991) can0 284#0107000E00000000
(1631416514.768929) can0 140#00C7044300000921
(1631416514.770017) can0 141#7326102701832703
(1631416514.770018) can0 144#C001971503288806
(1631416514.771082) can0 002#005A7007D1000000
(1631416514.772010) can0 280#0301100000000000
(1631416514.776075) can0 0D0#A8FF00000000FF01
(1631416514.777157) can0 0D1#00002000
(1631416514.777157) can0 0D2#0000FFFF10000000
(1631416514.777158) can0 0D3#0006E00F000014
(1631416514.777158) can0 0D4#0000000000000000
(1631416514.778174) can0 25C#2600000000000000
(1631416514.778175) can0 376#FA03
(1631416514.779211) can0 140#00C8044300000921
(1631416514.780089) can0 141#7326102702832703
(1631416514.781213) can0 002#005A7009D3000000
(1631416514.782257) can0 156#010000000000001A
(1631416514.786936) can0 152#E99C00000000108C
(1631416514.788947) can0 140#00C90443000009A1
(1631416514.790110) can0 141#7326102702832703
(1631416514.790111) can0 144#C000961503288806
(1631416514.790112) can0 360#AD01007F15469100
(1631416514.790112) can0 361#003200D809000000
(1631416514.791091) can0 6FC#0500000000093900
(1631416514.791092) can0 002#005A700BD5000000
(1631416514.792090) can0 280#0302100000000000
(1631416514.796079) can0 0D0#A8FF00000000FF01
(1631416514.797262) can0 0D1#00002000
(1631416514.797264) can0 0D2#0000FFFF10000000
(1631416514.797264) can0 0D3#8006E00F000015
(1631416514.797264) can0 0D4#0000000000000000
(1631416514.798987) can0 140#00CA0443000009A1
(1631416514.800101) can0 141#7326102702832703
(1631416514.801047) can0 002#005A700DD7000000
(1631416514.802136) can0 156#010000000000001A
(1631416514.806226) can0 380#190A000000000023
(1631416514.807252) can0 152#E9AC00000000108C
(1631416514.808979) can0 140#00CBFB42000009A1
(1631416514.810143) can0 141#7326102701832703
(1631416514.810144) can0 144#C001981503288806
(1631416514.811109) can0 002#005A700FD9000000
(1631416514.812081) can0 282#9FE0008E91C02A04
(1631416514.812082) can0 280#0303100000000000
(1631416514.816113) can0 0D0#A8FF00000000FF00
(1631416514.817071) can0 0D1#00002000
(1631416514.817072) can0 0D2#0000FFFF10000000
(1631416514.817072) can0 0D3#8006E00F000016
(1631416514.817073) can0 0D4#0000000000000000
(1631416514.818977) can0 140#00CCFB4200000921
(1631416514.820059) can0 141#7326102701832703
(1631416514.820975) can0 002#005A7001CB000000
(1631416514.821895) can0 156#010000000000001A
(1631416514.821896) can0 3D1#E310000075000006
(1631416514.827099) can0 152#E1BC00000000108C
(1631416514.827923) can0 376#FA03
(1631416514.829127) can0 140#00CDFB42000009A1
(1631416514.829915) can0 141#7326102700C32703
(1631416514.829916) can0 144#C001981503288806
(1631416514.831165) can0 002#005A7003CD000000
(1631416514.831942) can0 280#0304100000000000
(1631416514.836134) can0 0D0#A8FF00000000FF00
(1631416514.837250) can0 0D1#00002000
(1631416514.837251) can0 0D2#0000FFFF10000000
(1631416514.837252) can0 0D3#0006E00F000017
(1631416514.837252) can0 0D4#0000000000000000
(1631416514.838284) can0 25C#A700000000000000
(1631416514.839473) can0 140#00CEFB42000009A1
(1631416514.839474) can0 141#73261027FF822703
(1631416514.840258) can0 360#A901007F15469100
(1631416514.840259) can0 361#003200D80A000000
(1631416514.841503) can0 002#005A7005CF000000
(1631416514.841504) can0 156#010000000000001A
(1631416514.846886) can0 152#E9CC00000000108C
(1631416514.848817) can0 140#00CF004300000921
(1631416514.849848) can0 141#73261027FF822703
(1631416514.849849) can0 144#C001971503288806
(1631416514.850913) can0 002#005A7007D1000000
(1631416514.851963) can0 280#0305100000000000
(1631416514.855983) can0 0D0#A8FF00000000FE00
(1631416514.857112) can0 0D1#00002000
(1631416514.857113) can0 0D2#0000FFFF10000000
(1631416514.857114) can0 0D3#0006E00F000018
(1631416514.857114) can0 0D4#0000000000000000
(1631416514.858261) can0 6CF#0029000000000000
(1631416514.859165) can0 140#00C0004300000921
(1631416514.860100) can0 141#73261027FF822703
(1631416514.861088) can0 002#005A7009D3000000
(1631416514.862216) can0 156#010000000000001A
(1631416514.862217) can0 282#9EF0008E91C02A04
(1631416514.863327) can0 372#0058000000000000
(1631416514.867099) can0 152#E1DC00000000108C
(1631416514.868116) can0 284#0108000E00000000
(1631416514.868897) can0 140#00C10043000009A1
(1631416514.869978) can0 141#73261027FF822703
(1631416514.869979) can0 144#C001971503288806
(1631416514.871166) can0 002#005A700BD5000000
(1631416514.872042) can0 280#0306100000000000
(1631416514.876270) can0 0D0#A8FF00000000FE00
(1631416514.877131) can0 0D1#00002000
(1631416514.877132) can0 0D2#0000FFFF10000000
(1631416514.877133) can0 0D3#8006E00F000019
(1631416514.877133) can0 0D4#0000000000000000
(1631416514.877133) can0 376#FA03
(1631416514.878916) can0 140#00C20043000009A1
(1631416514.880038) can0 141#73261027FF822703
(1631416514.881090) can0 002#005A700DD7000000
(1631416514.881959) can0 156#010000000000001A
(1631416514.887065) can0 152#E1EC00000000108C
(1631416514.888974) can0 140#00C3FA42000009A1
(1631416514.888977) can0 141#73261027FF822703
(1631416514.890258) can0 144#C001981503288806
(1631416514.890259) can0 360#A801007F15469100
(1631416514.890259) can0 361#002200D80B000000
(1631416514.890260) can0 6FC#06000000000A4C00
(1631416514.891363) can0 002#005A700FD9000000
(1631416514.892165) can0 280#0307100000000000
(1631416514.896239) can0 0D0#A8FF00000000FE00
(1631416514.897032) can0 0D1#00002000
(1631416514.897033) can0 0D2#0000FFFF10000000
(1631416514.897034) can0 0D3#8006E00F00001A
(1631416514.897035) can0 0D4#0000000000000000
(1631416514.898159) can0 25C#2000000000000000
(1631416514.899224) can0 140#00C4FA4200000921
(1631416514.900280) can0 141#73261027FEC22703
(1631416514.901173) can0 002#005A7001CB000000
(1631416514.902264) can0 156#010000000000001A
(1631416514.906547) can0 380#1A0A000000000024
(1631416514.907593) can0 152#E9FC00000000108C
(1631416514.909074) can0 140#00C5FA42000009A1
(1631416514.909866) can0 141#73261027FDC22703
(1631416514.909867) can0 144#C001981503288806
(1631416514.911113) can0 002#005A7003CD000000
(1631416514.912057) can0 280#0308100000000000
(1631416514.912058) can0 282#9E00008E91C02A04
(1631416514.916211) can0 0D0#A8FF00000000FF01
(1631416514.917241) can0 0D1#00002000
(1631416514.917242) can0 0D2#0000FFFF10000000
(1631416514.917243) can0 0D3#0006E00F00001B
(1631416514.917243) can0 0D4#0000000000000000
(1631416514.918931) can0 140#00C6FA42000009A1
(1631416514.920067) can0 141#73261027FDC22703
(1631416514.921132) can0 002#005A7005CF000000
(1631416514.922121) can0 156#010000000000001A
(1631416514.922123) can0 3D1#E310000075000006
(1631416514.927138) can0 152#E90C00000000108C
(1631416514.927906) can0 376#FA03
(1631416514.929029) can0 140#00C7014300000921
(1631416514.930153) can0 141#73261027FDC22703
(1631416514.930154) can0 144#C000961503288806
(1631416514.930949) can0 002#005A7007D1000000
(1631416514.932137) can0 6D1#DFCE000000000000
(1631416514.932139) can0 280#0309100000000000
(1631416514.936226) can0 0D0#A8FF00000000FF01
(1631416514.937178) can0 0D1#00002000
(1631416514.937178) can0 0D2#0000FFFF10000000
(1631416514.937179) can0 0D3#8006E00F00001C
(1631416514.937179) can0 0D4#0000000000000000
(1631416514.938842) can0 140#00C8014300000921
(1631416514.939968) can0 141#73261027FEC22703
(1631416514.939969) can0 360#AC01007F15469100
(1631416514.939969) can0 361#003200D80C000000
(1631416514.941052) can0 002#005A7009D3000000
(1631416514.942051) can0 156#010000000000001A
(1631416514.946962) can0 152#E11C00000000108C
(1631416514.948959) can0 140#00C90143000009A1
(1631416514.949980) can0 141#73261027FEC22703
(1631416514.949981) can0 144#C000961503288806
(1631416514.951033) can0 002#005A700BD5000000
(1631416514.952043) can0 280#030A100000000000
(1631416514.956081) can0 0D0#A8FF00000000FF01
(1631416514.957132) can0 0D1#00002000
(1631416514.957133) can0 0D2#0000FFFF10000000
(1631416514.957133) can0 0D3#0006E00F00001D
(1631416514.957134) can0 0D4#0000000000000000
(1631416514.958213) can0 6FA#06C1002801
(1631416514.959180) can0 25C#A100000000000000
(1631416514.959181) can0 140#00CA0143000009A1
(1631416514.960101) can0 141#73261027FF822703
(1631416514.961200) can0 002#005A700DD7000000
(1631416514.962219) can0 156#010000000000001A
(1631416514.962219) can0 282#9F10008E91C02A04
(1631416514.962220) can0 6D0#0000000000000000
(1631416514.963245) can0 372#0068000000000000
(1631416514.966976) can0 152#E12C00000000108C
(1631416514.967951) can0 284#0109000E00000000
(1631416514.969020) can0 140#00CBF842000009A1
(1631416514.970023) can0 141#73261027FEC22703
(1631416514.970024) can0 144#C000991503288806
(1631416514.971062) can0 002#005A700FD9000000
(1631416514.971997) can0 280#030B100000000000
(1631416514.976055) can0 0D0#A8FF00000000FE01
(1631416514.977178) can0 0D1#00002000
(1631416514.977178) can0 0D2#0000FFFF10000000
(1631416514.977179) can0 0D3#0006E00F00001E
(1631416514.977179) can0 0D4#0000000000000000
(1631416514.977180) can0 376#FA03
(1631416514.978054) can0 6FB#0700000000
(1631416514.979203) can0 140#00CCF84200000921
(1631416514.979203) can0 141#73261027FDC22703
(1631416514.980845) can0 002#005A7001CB000000
(1631416514.981956) can0 156#010000000000001A
(1631416514.986965) can0 152#E93C00000000108C
(1631416514.988938) can0 140#00CDF842000009A1
(1631416514.989975) can0 141#73261027FDC22703
(1631416514.989976) can0 144#C000991503288806
(1631416514.989976) can0 360#A601007F15469100
(1631416514.989977) can0 361#002200D80D000000
(1631416514.990993) can0 6FC#07000000000B3900
(1631416514.991965) can0 002#005A7003CD000000
(1631416514.991966) can0 280#030C100000000000
(1631416514.995994) can0 0D0#A8FF00000000FF01
(1631416514.997251) can0 0D1#00002000
(1631416514.997253) can0 0D2#0000FFFF10000000
(1631416514.997253) can0 0D3#8006E00F00001F
(1631416514.997254) can0 0D4#0000000000000000
(1631416514.999007) can0 140#00CEF842000009A1
(1631416515.000066) can0 141#73261027FC822703
(1631416515.001055) can0 002#005A7005CF000000
(1631416515.001825) can0 156#010000000000001A
(1631416515.002793) can0 6C8#7004806900000000
(1631416515.006739) can0 380#1B0A000000000025
(1631416515.007733) can0 152#E14C00000000108C
(1631416515.008920) can0 140#00CF0243000009A1
(1631416515.009927) can0 141#73261027FC822703
(1631416515.009928) can0 144#C000961503288806
(1631416515.011045) can0 002#005A7007D1000000
(1631416515.011998) can0 280#030D100000000000
(1631416515.011998) can0 282#9F20008E91C02A04
(1631416515.016024) can0 0D0#A8FF00000000FF01
(1631416515.017143) can0 0D1#00002000
(1631416515.017144) can0 0D2#0000FFFF10000000
(1631416515.017144) can0 0D3#8006E00F000020
(1631416515.017144) can0 0D4#0000000000000000
(1631416515.018161) can0 25C#A200000000000000
(1631416515.019176) can0 140#00C00243000009A1
(1631416515.019176) can0 141#73261027FDC22703
(1631416515.020927) can0 002#005A7009D3000000
(1631416515.021860) can0 156#010000000000001A
(1631416515.021861) can0 3D1#E310000075000006
(1631416515.027012) can0 152#E95C00000000108C
(1631416515.027960) can0 376#FA03
(1631416515.028990) can0 140#00C1024300000921
(1631416515.030032) can0 141#73261027FEC22703
(1631416515.030032) can0 144#C000961503288806
(1631416515.031046) can0 002#005A700BD5000000
(1631416515.032023) can0 280#030E100000000000
(1631416515.036062) can0 0D0#A8FF00000000FF01
(1631416515.037217) can0 0D1#00002000
(1631416515.037218) can0 0D2#0000FFFF10000000
(1631416515.037218) can0 0D3#0006E00F000021
(1631416515.037219) can0 0D4#0000000000000000
(1631416515.038807) can0 140#00C2024300000921
(1631416515.039947) can0 141#73261027FF822703
(1631416515.039948) can0 360#AA01007F15469100
(1631416515.039948) can0 361#002200D80E000000
(1631416515.041069) can0 002#005A700DD7000000
(1631416515.042052) can0 156#010000000000001A
(1631416515.046987) can0 152#E96C00000000108C
(1631416515.048848) can0 140#00C3F84200000921
(1631416515.049907) can0 141#73261027FEC22703
(1631416515.049908) can0 144#C001981503288806
(1631416515.050889) can0 002#005A700FD9000000
(1631416515.051911) can0 280#030F100000000000
(1631416515.056157) can0 0D0#A8FF00000000FF01
(1631416515.057040) can0 0D1#00002000
(1631416515.057041) can0 0D2#0000FFFF10000000
(1631416515.057041) can0 0D3#0006E00F000022
(1631416515.057042) can0 0D4#0000000000000000
(1631416515.058824) can0 140#00C4F842000009A1
(1631416515.059957) can0 141#73261027FDC22703
(1631416515.060875) can0 002#005A7001CB000000
(1631416515.062054) can0 156#010000000000001A
(1631416515.062055) can0 282#9F30008E91C02A04
(1631416515.063073) can0 372#0070000000000000
(1631416515.066933) can0 152#E17C00000000108C
(1631416515.068000) can0 284#010A000E00000000
(1631416515.069035) can0 140#00C5F84200000921
(1631416515.070041) can0 141#73261027FC822703
(1631416515.070041) can0 144#C001981503288806
(1631416515.071056) can0 002#005A7003CD000000
(1631416515.071993) can0 280#0300100000000000
(1631416515.076020) can0 0D0#A8FF00000000FF01
(1631416515.077140) can0 0D1#00001F00
(1631416515.077141) can0 0D2#0000FFFF10000000
(1631416515.077142) can0 0D3#8006E00F000023
(1631416515.077142) can0 0D4#0000000000000000
(1631416515.077142) can0 376#FA03
(1631416515.078169) can0 25C#2300000000000000
(1631416515.079178) can0 140#00C6FE4200000921
(1631416515.079179) can0 141#73261027FBC22703
(1631416515.080891) can0 002#005A7005CF000000
(1631416515.081997) can0 156#010000000000001A
(1631416515.087049) can0 152#E18C00000000108C
(1631416515.088893) can0 140#00C7FE42000009A1
(1631416515.090068) can0 141#73261027FC822703
(1631416515.090069) can0 144#C001971503288806
(1631416515.090070) can0 360#A701007F15469100
(1631416515.090070) can0 361#003200D80F000000
(1631416515.090803) can0 6FC#08000000000C3800
(1631416515.091951) can0 002#005A7007D1000000
(1631416515.091952) can0 280#0301100000000000
(1631416515.096097) can0 0D0#A8FF00000000FF00
(1631416515.097273) can0 0D1#00001F00
(1631416515.097274) can0 0D2#0000FFFF10000000
(1631416515.097275) can0 0D3#0006E00F000024
(1631416515.097276) can0 0D4#0000000000000000
(1631416515.098977) can0 140#00C8FE42000009A1
(1631416515.099986) can0 141#73261027FC822703
(1631416515.101155) can0 002#005A7009D3000000
(1631416515.101949) can0 156#010000000000001A
(1631416515.106975) can0 152#E99C00000000108C
(1631416515.108111) can0 380#1C0A000000000026
(1631416515.109088) can0 140#00C9FE4200000921
(1631416515.110131) can0 141#73261027FC822703
(1631416515.110132) can0 144#C001971503288806
(1631416515.111035) can0 002#005A700BD5000000
(1631416515.111892) can0 280#0302100000000000
(1631416515.111893) can0 282#9F40008E91C02A04
(1631416515.116111) can0 0D0#A8FF00000000FF00
(1631416515.117232) can0 0D1#00001F00
(1631416515.117233) can0 0D2#0000FFFF10000000
(1631416515.117233) can0 0D3#8006E00F000025
(1631416515.117234) can0 0D4#0000000000000000
(1631416515.118984) can0 140#00CAF542000009A1
(1631416515.120018) can0 141#73261027FDC22703
(1631416515.121162) can0 002#005A700DD7000000
(1631416515.121936) can0 156#010000000000001A
(1631416515.121937) can0 3D1#E310000075000006
(1631416515.127126) can0 152#E9AC00000000108C
(1631416515.127902) can0 376#FA03
(1631416515.127903) can0 660#FFFF01DD00000409
(1631416515.129138) can0 140#00CBF54200000921
(1631416515.130001) can0 141#73261027FC822703
(1631416515.130002) can0 144#C000991503288806
(1631416515.131040) can0 002#005A700FD9000000
(1631416515.132149) can0 280#0303100000000000
(1631416515.132150) can0 281#2894505070000000
(1631416515.136235) can0 0D0#A8FF00000000FF00
(1631416515.137105) can0 0D1#00001F00
(1631416515.137106) can0 0D2#0000FFFF10000000
(1631416515.137106) can0 0D3#8006E00F000026
(1631416515.137107) can0 0D4#0000000000000000
(1631416515.138265) can0 25C#A400000000000000
(1631416515.139123) can0 140#00CCF542000009A1
(1631416515.139124) can0 141#73261027FBC22703
(1631416515.140140) can0 360#A301007F15469100
(1631416515.140141) can0 361#003200D800000000
(1631416515.141271) can0 002#005A7001CB000000
(1631416515.142289) can0 156#010000000000001A
(1631416515.147084) can0 152#E1BC00000000108C
(1631416515.148829) can0 140#00CDF54200000921
(1631416515.150039) can0 141#73261027FA822703
(1631416515.150041) can0 144#C000991503288806
(1631416515.151142) can0 002#005A7003CD000000
(1631416515.152077) can0 280#0304100000000000
(1631416515.156176) can0 0D0#A8FF00000000FF00
(1631416515.157267) can0 0D1#00001F00
(1631416515.157268) can0 0D2#0000FFFF10000000
(1631416515.157269) can0 0D3#0006E00F000027
(1631416515.157269) can0 0D4#0000000000000000
(1631416515.159013) can0 140#00CEFB42000009A1
(1631416515.159867) can0 141#73261027F9822703
(1631416515.161046) can0 002#005A7005CF000000
(1631416515.162125) can0 156#010000000000001A
(1631416515.162126) can0 282#9F50008E91C02A04
(1631416515.162127) can0 6D0#0000000000000000
(1631416515.163142) can0 372#0080000000000000
(1631416515.167037) can0 152#E9CC00000000108C
(1631416515.167900) can0 284#010B000E00000000
(1631416515.169119) can0 140#00CFFB4200000921
(1631416515.170120) can0 141#73261027F9822703
(1631416515.170121) can0 144#C001981503288806
(1631416515.170917) can0 002#005A7007D1000000
(1631416515.172126) can0 280#0305100000000000
(1631416515.176192) can0 0D0#A8FF00000000FE00
(1631416515.177243) can0 0D1#00001F00
(1631416515.177244) can0 0D2#0000FFFF10000000
(1631416515.177245) can0 0D3#0006E00F000028
(1631416515.177245) can0 0D4#0000000000000000
(1631416515.177246) can0 376#FA03
(1631416515.178953) can0 140#00C0FB4200000921
(1631416515.180011) can0 141#73261027FA822703
(1631416515.181130) can0 002#005A7009D3000000
(1631416515.182160) can0 156#010000000000001A
(1631416515.187065) can0 152#E1DC00000000108C
(1631416515.188920) can0 140#00C1FB42000009A1
(1631416515.190054) can0 141#73261027FA822703
(1631416515.190055) can0 144#C001981503288806
(1631416515.190055) can0 360#A601007F15469100
(1631416515.190056) can0 361#002200D801000000
(1631416515.190847) can0 6FC#09000000000D3300
(1631416515.191975) can0 002#005A700BD5000000
(1631416515.191976) can0 280#0306100000000000
(1631416515.196153) can0 0D0#A8FF00000000FE00
(1631416515.197244) can0 0D1#00001F00
(1631416515.197245) can0 0D2#0000FFFF10000000
(1631416515.197246) can0 0D3#8006E00F000029
(1631416515.197246) can0 0D4#0000000000000000
(1631416515.198560) can0 25C#2500000000000000
(1631416515.199451) can0 140#00C2F64200000921
(1631416515.199452) can0 141#73261027FA822703
(1631416515.201121) can0 002#005A700DD7000000
(1631416515.202075) can0 156#010000000000001A
(1631416515.207146) can0 152#E1EC00000000108C
(1631416515.208025) can0 380#1D0A000000000027
(1631416515.209092) can0 140#00C3F642000009A1
(1631416515.210164) can0 141#73261027F9822703
(1631416515.210166) can0 144#C000991503288806
(1631416515.211078) can0 002#005A700FD9000000
(1631416515.212063) can0 280#0307100000000000
(1631416515.212064) can0 282#9F60008E91C02A04
(1631416515.216196) can0 0D0#A8FF00000000FE00
(1631416515.217247) can0 0D1#00001F00
(1631416515.217248) can0 0D2#0000FFFF10000000
(1631416515.217249) can0 0D3#8006E00F00002A
(1631416515.217249) can0 0D4#0000000000000000
(1631416515.218990) can0 140#00C4F64200000921
(1631416515.220045) can0 141#73261027F9822703
(1631416515.221207) can0 002#005A7001CB000000
(1631416515.221970) can0 156#010000000000001A
(1631416515.221971) can0 3D1#E310000075000006
(1631416515.227136) can0 152#E9FC00000000108C
(1631416515.227924) can0 376#FA03
(1631416515.229026) can0 140#00C5F642000009A1
(1631416515.230123) can0 141#73261027F9822703
(1631416515.230124) can0 144#C000991503288806
(1631416515.231070) can0 002#005A7003CD000000
(1631416515.232146) can0 280#0308100000000000
(1631416515.236201) can0 0D0#A8FF00000000FE01
(1631416515.237137) can0 0D1#00001F00
(1631416515.237138) can0 0D2#0000FFFF10000000
(1631416515.237139) can0 0D3#0006E00F00002B
(1631416515.237139) can0 0D4#0000000000000000
(1631416515.238959) can0 140#00C6FC42000009A1
(1631416515.240039) can0 141#73261027F9822703
(1631416515.240041) can0 360#A601007F15469100
(1631416515.240042) can0 361#002200D802000000
(1631416515.241164) can0 002#005A7005CF000000
(1631416515.241985) can0 156#010000000000001A
(1631416515.247106) can0 152#E90C00000000108C
(1631416515.248942) can0 140#00C7FC4200000921
(1631416515.249977) can0 141#73261027F9822703
(1631416515.249978) can0 144#C001981503288806
(1631416515.251156) can0 002#005A7007D1000000
(1631416515.251954) can0 280#0309100000000000
(1631416515.256118) can0 0D0#A8FF00000000FE01
(1631416515.257218) can0 0D1#00001F00
(1631416515.257220) can0 0D2#0000FFFF10000000
(1631416515.257220) can0 0D3#8006E00F00002C
(1631416515.257220) can0 0D4#0000000000000000
(1631416515.258063) can0 25C#2600000000000000
(1631416515.259226) can0 140#00C8FC4200000921
(1631416515.259227) can0 141#73261027FA822703
(1631416515.260961) can0 002#005A7009D3000000
(1631416515.262122) can0 156#010000000000001A
(1631416515.262124) can0 282#A070008E91C02A04
(1631416515.263143) can0 372#0098000000000000
(1631416515.267029) can0 152#E11C00000000108C
(1631416515.267898) can0 284#010C000E00000000
(1631416515.269107) can0 140#00C9FC42000009A1
(1631416515.270108) can0 141#73261027FA822703
(1631416515.270109) can0 144#C001981503288806
(1631416515.271054) can0 002#005A700BD5000000
(1631416515.272055) can0 280#030A100000000000
(1631416515.276211) can0 0D0#A8FF00000000FF01
(1631416515.277139) can0 0D1#00001F00
(1631416515.277140) can0 0D2#0000FFFF10000000
(1631416515.277140) can0 0D3#0006E00F00002D
(1631416515.277141) can0 0D4#0000000000000000
(1631416515.277141) can0 376#FA03
(1631416515.278876) can0 140#00CAF342000009A1
(1631416515.280015) can0 141#73261027F9822703
(1631416515.281125) can0 002#005A700DD7000000
(1631416515.282071) can0 156#010000000000001A
(1631416515.286950) can0 152#E12C00000000108C
(1631416515.287986) can0 154#00000000000004
(1631416515.289053) can0 140#00CBF34200000921
(1631416515.289930) can0 141#73261027F8C22703
(1631416515.289931) can0 144#C0009A1503288806
(1631416515.289931) can0 360#A101007F15469100
(1631416515.289932) can0 361#003200D803000000
(1631416515.291111) can0 6FC#0A000000000E3300
(1631416515.292107) can0 002#005A700FD9000000
(1631416515.292108) can0 280#030B100000000000
(1631416515.296256) can0 0D0#A8FF00000000FF01
(1631416515.297056) can0 0D1#00001F00
(1631416515.297057) can0 0D2#0000FFFF10000000
(1631416515.297058) can0 0D3#0006E00F00002E
(1631416515.297058) can0 0D4#0000000000000000
(1631416515.298714) can0 140#00CCF342000009A1
(1631416515.299826) can0 141#73261027F8C22703
(1631416515.301051) can0 002#005A7001CB000000
(1631416515.302074) can0 156#010000000000001A
(1631416515.307032) can0 152#E93C00000000108C
(1631416515.307975) can0 380#1E0A000000000028
(1631416515.308978) can0 140#00CDF34200000921
(1631416515.310019) can0 141#73261027F7C22703
(1631416515.310020) can0 144#C0009A1503288806
(1631416515.311077) can0 002#005A7003CD000000
(1631416515.312061) can0 280#030C100000000000
(1631416515.312062) can0 282#A080008E91C02A04
(1631416515.315971) can0 0D0#A8FF00000000FF01
(1631416515.317142) can0 0D1#00001F00
(1631416515.317143) can0 0D2#0000FFFF10000000
(1631416515.317143) can0 0D3#8006E00F00002F
(1631416515.317143) can0 0D4#0000000000000000
(1631416515.318796) can0 140#00CEFC4200000921
(1631416515.319937) can0 141#73261027F7C22703
(1631416515.319938) can0 25C#A700000000000000
(1631416515.321068) can0 002#005A7005CF000000
(1631416515.322037) can0 156#010000000000001A
(1631416515.322037) can0 3D1#E310000075000006
(1631416515.326999) can0 152#E14C00000000108C
(1631416515.328010) can0 376#FA03
(1631416515.329008) can0 140#00CFFC42000009A1
(1631416515.330044) can0 141#73261027F8C22703
(1631416515.330045) can0 144#C001981503288806
(1631416515.331055) can0 002#005A7007D1000000
(1631416515.332045) can0 280#030D100000000000
(1631416515.336003) can0 0D0#A8FF00000000FF01
(1631416515.337144) can0 0D1#00001F00
(1631416515.337145) can0 0D2#0000FFFF10000000
(1631416515.337145) can0 0D3#0006E00F000030
(1631416515.337145) can0 0D4#0000000000000000
(1631416515.338727) can0 140#00C0FC42000009A1
(1631416515.339926) can0 141#73261027F8C22703
(1631416515.339926) can0 360#A601007F15469100
(1631416515.339927) can0 361#002200D804000000
(1631416515.341051) can0 002#005A7009D3000000
(1631416515.342051) can0 156#010000000000001A
(1631416515.346792) can0 152#E95C00000000108C
(1631416515.348662) can0 140#00C1FC4200000921
(1631416515.349647) can0 141#73261027F9822703
(1631416515.349648) can0 144#C001981503288806
(1631416515.350824) can0 002#005A700BD5000000
(1631416515.351816) can0 280#030E100000000000
(1631416515.356072) can0 0D0#A8FF00000000FF01
(1631416515.357263) can0 0D1#00001E80
(1631416515.357264) can0 0D2#0000FFFF10000000
(1631416515.357265) can0 0D3#8006E00F000031
(1631416515.357265) can0 0D4#0000000000000000
(1631416515.359006) can0 140#00C2F442000009A1
(1631416515.360019) can0 141#73261027F8C22703
(1631416515.361154) can0 002#005A700DD7000000
(1631416515.361971) can0 156#010000000000001A
(1631416515.361972) can0 282#9F90008E91C02A04
(1631416515.361973) can0 6D0#0000000000000000
(1631416515.363111) can0 372#00A8000000000000
(1631416515.367034) can0 152#E96C00000000108C
(1631416515.368078) can0 284#010D000E00000000
(1631416515.368886) can0 140#00C3F44200000921
(1631416515.370004) can0 141#73261027F8C22703
(1631416515.370005) can0 144#C000991503288806
(1631416515.371082) can0 002#005A700FD9000000
(1631416515.371926) can0 280#030F100000000000
(1631416515.376068) can0 0D0#A8FF00000000FF01
(1631416515.377261) can0 0D1#00001E80
(1631416515.377262) can0 0D2#0000FFFF10000000
(1631416515.377263) can0 0D3#8006E00F000032
(1631416515.377263) can0 0D4#0000000000000000
(1631416515.378219) can0 25C#2000000000000000
(1631416515.378220) can0 376#FA03
(1631416515.379086) can0 140#00C4F442000009A1
(1631416515.379087) can0 141#73261027F7C22703
(1631416515.381039) can0 002#005A7001CB000000
(1631416515.382184) can0 156#010000000000001A
(1631416515.387115) can0 152#E17C00000000108C
(1631416515.387864) can0 37A#0000000000000000
(1631416515.388914) can0 140#00C5F44200000921
(1631416515.390104) can0 141#73261027F7C22703
(1631416515.390105) can0 144#C000991503288806
(1631416515.390105) can0 360#A201007F15469100
(1631416515.390106) can0 361#003200D805000000
(1631416515.391050) can0 6FC#0B000000000F3200
(1631416515.391051) can0 002#005A7003CD000000
(1631416515.392069) can0 280#0300100000000000
(1631416515.396169) can0 0D0#A8FF00000000FF01
(1631416515.397207) can0 0D1#00001E80
(1631416515.397208) can0 0D2#0000FFFF10000000
(1631416515.397208) can0 0D3#0006E00F000033
(1631416515.397209) can0 0D4#0000000000000000
(1631416515.398926) can0 140#00C6F942000009A1
(1631416515.399983) can0 141#73261027F7C22703
(1631416515.401167) can0 002#005A7005CF000000
(1631416515.402124) can0 156#010000000000001A
(1631416515.406979) can0 152#E18C00000000108C
(1631416515.408160) can0 380#1F0A000000000029
(1631416515.408955) can0 140#00C7F94200000921
(1631416515.410170) can0 141#73261027F7C22703
(1631416515.410171) can0 144#C001981503288806
(1631416515.410992) can0 002#005A7007D1000000
(1631416515.412189) can0 280#0301100000000000
(1631416515.412190) can0 282#9FA0008E91C02A04
(1631416515.416238) can0 0D0#A8FF00000000FF01
(1631416515.417107) can0 0D1#00001E80
(1631416515.417108) can0 0D2#0000FFFF10000000
(1631416515.417108) can0 0D3#8006E00F000034
(1631416515.417109) can0 0D4#0000000000000000
(1631416515.418884) can0 140#00C8F94200000921
(1631416515.419976) can0 141#73261027F7C22703
(1631416515.421202) can0 002#005B7009D4000000
(1631416515.421849) can0 156#010000000000001A
(1631416515.421850) can0 3D1#E210000075000006
(1631416515.426984) can0 152#E99C00000000108C
(1631416515.428023) can0 376#FA03
(1631416515.429004) can0 140#00C9F942000009A1
(1631416515.430012) can0 141#73261027F8C22703
(1631416515.430013) can0 144#C001981503288806
(1631416515.431064) can0 002#005A700BD5000000
(1631416515.432067) can0 280#0302100000000000
(1631416515.436030) can0 0D0#A7FF00000000FE01
(1631416515.437157) can0 0D1#00001E80
(1631416515.437158) can0 0D2#0000FFFF10000000
(1631416515.437158) can0 0D3#0006E00F000035
(1631416515.437159) can0 0D4#0000000000000000
(1631416515.438200) can0 25C#A100000000000000
(1631416515.439234) can0 140#00CAF74200000921
(1631416515.439234) can0 141#73261127F8822703
(1631416515.440093) can0 360#A401007F15469100
(1631416515.440094) can0 361#003200D806000000
(1631416515.441305) can0 002#005A700DD7000000
(1631416515.442297) can0 156#010000000000001A
(1631416515.447100) can0 152#E9AC00000000108C
(1631416515.448779) can0 140#00CBF742000009A1
(1631416515.450007) can0 141#73261127F8822703
(1631416515.450008) can0 144#C000991503288806
(1631416515.451114) can0 002#005A700FD9000000
(1631416515.452025) can0 280#0303100000000000
(1631416515.456045) can0 0D0#A8FF00000000FF01
(1631416515.457148) can0 0D1#00001E80
(1631416515.457148) can0 0D2#0000FFFF10000000
(1631416515.457149) can0 0D3#0006E00F000036
(1631416515.457149) can0 0D4#0000000000000000
(1631416515.458733) can0 140#00CCF74200000921
(1631416515.459907) can0 141#73261127F7822703
(1631416515.461059) can0 002#005A7001CB000000
(1631416515.462071) can0 156#010000000000001A
(1631416515.462071) can0 282#9EB0008E91C02A04
(1631416515.463090) can0 372#00B0000000000000
(1631416515.467037) can0 152#E1BC00000000108C
(1631416515.467968) can0 284#010E000E00000000
(1631416515.469013) can0 140#00CDF742000009A1
(1631416515.470024) can0 141#73261027F7C22703
(1631416515.470025) can0 144#C000991503288806
(1631416515.471105) can0 002#005A7003CD000000
(1631416515.472013) can0 280#0304100000000000
(1631416515.476066) can0 0D0#A8FF00000000FE01
(1631416515.477163) can0 0D1#00001E80
(1631416515.477164) can0 0D2#0000FFFF10000000
(1631416515.477164) can0 0D3#8006E00F000037
(1631416515.477164) can0 0D4#0000000000000000
(1631416515.477165) can0 376#FA03
(1631416515.478793) can0 140#00CE0043000009A1
(1631416515.479890) can0 141#73261027F8C22703
(1631416515.481055) can0 002#005A7005CF000000
(1631416515.482077) can0 156#010000000000001A
(1631416515.486954) can0 152#E9CC00000000108C
(1631416515.488726) can0 140#00CF004300000921
(1631416515.489799) can0 141#73261027F9822703
(1631416515.489800) can0 144#C001971503288806
(1631416515.489800) can0 360#AC01007F15469100
(1631416515.489801) can0 361#002200D807000000
(1631416515.490883) can0 6FC#0C00000000103500
(1631416515.491925) can0 002#005A7007D1000000
(1631416515.491926) can0 280#0305100000000000
(1631416515.495982) can0 0D0#A8FF00000000FF01
(1631416515.497131) can0 0D1#00001E80
(1631416515.497132) can0 0D2#0000FFFF10000000
(1631416515.497132) can0 0D3#8006E00F000038
(1631416515.497132) can0 0D4#0000000000000000
(1631416515.498177) can0 25C#A200000000000000
(1631416515.499179) can0 140#00C0004300000921
(1631416515.499180) can0 141#73261027FA822703
(1631416515.500854) can0 002#005A7009D3000000
(1631416515.501877) can0 156#010000000000001A
(1631416515.506890) can0 152#E1DC00000000108C
(1631416515.508334) can0 380#100A00000000001A
(1631416515.509450) can0 140#00C10043000009A1
(1631416515.509450) can0 141#73261027FBC22703
(1631416515.509451) can0 144#C001971503288806
(1631416515.511140) can0 002#005A700BD5000000
(1631416515.512032) can0 280#0306100000000000
(1631416515.512033) can0 282#9EC0008E91C02A04
(1631416515.516074) can0 0D0#A8FF00000000FF01
(1631416515.517103) can0 0D1#00001E80
(1631416515.517104) can0 0D2#0000FFFF10000000
(1631416515.517105) can0 0D3#0006E00F000039
(1631416515.517105) can0 0D4#0000000000000000
(1631416515.518731) can0 140#00C2F442000009A1
(1631416515.519860) can0 141#73261027FA822703
(1631416515.521030) can0 002#005A700DD7000000
(1631416515.522014) can0 156#010000000000001A
(1631416515.522014) can0 3D1#E310000075000006
(1631416515.527003) can0 152#E1EC00000000108C
(1631416515.528015) can0 376#FA03
(1631416515.529052) can0 140#00C3F44200000921
(1631416515.530034) can0 141#73261027FA822703
(1631416515.530035) can0 144#C0009A1503288806
(1631416515.531074) can0 002#005A700FD9000000
(1631416515.532061) can0 280#0307100000000000
(1631416515.536031) can0 0D0#A8FF00000000FF01
(1631416515.537139) can0 0D1#00001E80
(1631416515.537140) can0 0D2#0000FFFF10000000
(1631416515.537141) can0 0D3#0006E00F00003A
(1631416515.537141) can0 0D4#0000000000000000
(1631416515.538760) can0 140#00C4F442000009A1
(1631416515.539864) can0 141#73261027F9822703
(1631416515.539865) can0 360#A601007F15469100
(1631416515.539865) can0 361#002200D808000000
(1631416515.541061) can0 002#005A7001CB000000
(1631416515.542099) can0 156#010000000000001A
(1631416515.546849) can0 152#E9FC00000000108C
(1631416515.548920) can0 140#00C5F44200000921
(1631416515.549874) can0 141#73261027F8C22703
(1631416515.549875) can0 144#C0009A1503288806
(1631416515.551058) can0 002#005A7003CD000000
(1631416515.552077) can0 280#0308100000000000
(1631416515.556136) can0 0D0#A8FF00000000FF01
(1631416515.557149) can0 0D1#00001E80
(1631416515.557149) can0 0D2#0000FFFF10000000
(1631416515.557150) can0 0D3#8006E00F00003B
(1631416515.557150) can0 0D4#0000000000000000
(1631416515.558574) can0 25C#2300000000000000
(1631416515.559565) can0 140#00C6FE4200000921
(1631416515.559565) can0 141#73261027F8C22703
(1631416515.561131) can0 002#005A7005CF000000
(1631416515.562070) can0 156#010000000000001A
(1631416515.562072) can0 282#9FD0008E91C02A04
(1631416515.562072) can0 6D0#0000000000000000
(1631416515.563069) can0 372#00C8000000000000
(1631416515.566967) can0 152#E90C00000000108C
(1631416515.567987) can0 284#010F000E00000000
(1631416515.569027) can0 140#00C7FE42000009A1
(1631416515.570014) can0 141#73261027F9822703
(1631416515.570015) can0 144#C001971503288806
(1631416515.571059) can0 002#005A7007D1000000
(1631416515.572013) can0 280#0309100000000000
(1631416515.576037) can0 0D0#A8FF00000000FF01
(1631416515.577145) can0 0D1#00001E80
(1631416515.577145) can0 0D2#0000FFFF10000000
(1631416515.577146) can0 0D3#0006E00F00003C
(1631416515.577146) can0 0D4#0000000000000000
(1631416515.577147) can0 376#FA03
(1631416515.578718) can0 140#00C8FE42000009A1
(1631416515.579887) can0 141#73261027FA822703
(1631416515.581047) can0 002#005A7009D3000000
(1631416515.582070) can0 156#010000000000001A
(1631416515.587072) can0 152#E11C00000000108C
(1631416515.588832) can0 140#00C9FE4200000921
(1631416515.589969) can0 141#73261027FA822703
(1631416515.589970) can0 144#C001971503288806
(1631416515.589970) can0 360#AB01007F15469100
(1631416515.589971) can0 361#003200D809000000
(1631416515.590980) can0 6FC#0D00000000113000
(1631416515.591809) can0 002#005A700BD5000000
(1631416515.591810) can0 280#030A100000000000
(1631416515.596067) can0 0D0#A8FF00000000FF01
(1631416515.597237) can0 0D1#00001E80
(1631416515.597238) can0 0D2#0000FFFF10000000
(1631416515.597239) can0 0D3#8006E00F00003D
(1631416515.597239) can0 0D4#0000000000000000
(1631416515.598935) can0 140#00CAFA42000009A1
(1631416515.600074) can0 141#73261027FBC22703
(1631416515.601067) can0 002#005A700DD7000000
(1631416515.602138) can0 156#010000000000001A
(1631416515.607102) can0 152#E12C00000000108C
(1631416515.608799) can0 380#110A00000000001B
(1631416515.609849) can0 140#00CBFA4200000921
(1631416515.609850) can0 141#73261027FBC22703
(1631416515.609851) can0 144#C001981503288806
(1631416515.611194) can0 002#005A700FD9000000
(1631416515.611991) can0 280#030B100000000000
(1631416515.611992) can0 282#9FE0008E91C02A04
(1631416515.616191) can0 0D0#A8FF00000000FF01
(1631416515.617227) can0 0D1#00001E80
(1631416515.617228) can0 0D2#0000FFFF10000000
(1631416515.617228) can0 0D3#8006E00F00003E
(1631416515.617229) can0 0D4#0000000000000000
(1631416515.618046) can0 25C#A400000000000000
(1631416515.619264) can0 140#00CCFA42000009A1
(1631416515.619265) can0 141#73261027FBC22703
(1631416515.621046) can0 002#005A7001CB000000
(1631416515.622132) can0 156#010000000000001A
(1631416515.622134) can0 3D1#E210000075000006
(1631416515.627101) can0 152#E93C00000000108C
(1631416515.627965) can0 376#FA03
(1631416515.627966) can0 660#FFFF01DD0000040E
(1631416515.629120) can0 140#00CDFA4200000921
(1631416515.629942) can0 141#73261027FA822703
(1631416515.629943) can0 144#C001981503288806
(1631416515.631142) can0 002#005A7003CD000000
(1631416515.632115) can0 280#030C100000000000
(1631416515.636207) can0 0D0#A8FF00000000FF01
(1631416515.637253) can0 0D1#00001E80
(1631416515.637254) can0 0D2#0000FFFF10000000
(1631416515.637254) can0 0D3#0006E00F00003F
(1631416515.637255) can0 0D4#0000000000000000
(1631416515.638916) can0 140#00CE024300000921
(1631416515.639928) can0 141#73261027FBC22703
(1631416515.639929) can0 360#AC01007F15469100
(1631416515.639929) can0 361#003200D80A000000
(1631416515.641200) can0 002#005A7005CF000000
(1631416515.642103) can0 156#010000000000001A
(1631416515.647056) can0 152#E14C00000000108C
(1631416515.648090) can0 374#4808000000000000
(1631416515.649108) can0 140#00CF0243000009A1
(1631416515.650123) can0 141#73261027FC822703
(1631416515.650124) can0 144#C000961503288806
(1631416515.651141) can0 002#005A7007D1000000
(1631416515.652048) can0 280#030D100000000000
(1631416515.656089) can0 0D0#A8FF00000000FF01
(1631416515.657056) can0 0D1#00001E80
(1631416515.657057) can0 0D2#0000FFFF10000000
(1631416515.657058) can0 0D3#8006E00F000040
(1631416515.657058) can0 0D4#0000000000000000
(1631416515.658791) can0 140#00C00243000009A1
(1631416515.659948) can0 141#73261027FDC22703
(1631416515.661162) can0 002#005A7009D3000000
(1631416515.662131) can0 156#010000000000001A
(1631416515.662132) can0 282#9FF0008E91C02A04
(1631416515.662976) can0 372#00D0000000000000
(1631416515.667014) can0 152#E95C00000000108C
(1631416515.668057) can0 284#0100000E00000000
(1631416515.668058) can0 375#03000009A0002200
(1631416515.668905) can0 140#00C1024300000921
(1631416515.670089) can0 141#73261027FEC22703
(1631416515.670090) can0 144#C000961503288806
(1631416515.671171) can0 002#005A700BD5000000
(1631416515.672045) can0 280#030E100000000000
(1631416515.676219) can0 0D0#A8FF00000000FF01
(1631416515.677260) can0 0D1#00001D80
(1631416515.677261) can0 0D2#0000FFFF10000000
(1631416515.677261) can0 0D3#0006E00F000041
(1631416515.677262) can0 0D4#0000000000000000
(1631416515.677263) can0 376#FA03
(1631416515.678910) can0 140#00C2FE42000009A1
(1631416515.679850) can0 141#73261027FEC22703
(1631416515.679851) can0 25C#2500000000000000
(1631416515.681142) can0 002#005A700DD7000000
(1631416515.682080) can0 156#010000000000001A
(1631416515.687063) can0 152#E96C00000000108C
(1631416515.688854) can0 140#00C3FE4200000921
(1631416515.690023) can0 141#73261027FEC22703
(1631416515.690024) can0 144#C001971503288806
(1631416515.690024) can0 360#A901007F15469100
(1631416515.690025) can0 361#002200D80B000000
(1631416515.690820) can0 6FC#0E00000000014A00
(1631416515.691930) can0 002#005A700FD9000000
(1631416515.691932) can0 280#030F100000000000
(1631416515.696095) can0 0D0#A8FF00000000FF00
(1631416515.697247) can0 0D1#00001D80
(1631416515.697248) can0 0D2#0000FFFF10000000
(1631416515.697248) can0 0D3#0006E00F000042
(1631416515.697249) can0 0D4#0000000000000000
(1631416515.698886) can0 140#00C4FE42000009A1
(1631416515.699948) can0 141#73261027FEC22703
(1631416515.701203) can0 002#005A7001CB000000
(1631416515.702111) can0 156#010000000000001A
(1631416515.707058) can0 152#E17C00000000108C
(1631416515.708918) can0 140#00C50443000009A1
(1631416515.709971) can0 141#73261027FEC22703
(1631416515.709972) can0 144#C000961503288806
(1631416515.709972) can0 380#120A00000000001C
(1631416515.711185) can0 002#005A7003CD000000
(1631416515.712130) can0 280#0300100000000000
(1631416515.712131) can0 282#9F00008E91C02A04
(1631416515.716194) can0 0D0#A8FF00000000FF00
(1631416515.717211) can0 0D1#00001D80
(1631416515.717212) can0 0D2#0000FFFF10000000
(1631416515.717212) can0 0D3#8006E00F000043
(1631416515.717213) can0 0D4#0000000000000000
(1631416515.718922) can0 140#00C60443000009A1
(1631416515.719854) can0 141#73261027FF822703
(1631416515.721142) can0 002#005A7005CF000000
(1631416515.722086) can0 156#010000000000001A
(1631416515.722087) can0 3D1#E310000075000006
(1631416515.727110) can0 152#E18C00000000108C
(1631416515.727895) can0 376#FA03
(1631416515.729030) can0 140#00C7044300000921
(1631416515.730099) can0 141#7326102700C32703
(1631416515.730100) can0 144#C000961503288806
(1631416515.731159) can0 002#005A7007D1000000
(1631416515.732128) can0 280#0301100000000000
(1631416515.736198) can0 0D0#A8FF00000000FF00
(1631416515.737239) can0 0D1#00001D80
(1631416515.737240) can0 0D2#0000FFFF10000000
(1631416515.737240) can0 0D3#0006E00F000044
(1631416515.737241) can0 0D4#0000000000000000
(1631416515.738064) can0 25C#2600000000000000
(1631416515.739157) can0 140#00C8044300000921
(1631416515.739158) can0 141#7326102700C32703
(1631416515.740281) can0 360#AB01007F15469100
(1631416515.740282) can0 361#003200D80C000000
(1631416515.741115) can0 002#005A7009D3000000
(1631416515.742182) can0 156#010000000000001A
(1631416515.747078) can0 152#E99C00000000108C
(1631416515.748804) can0 140#00C9FC42000009A1
(1631416515.749936) can0 141#7326102701832703
(1631416515.749937) can0 144#C000961503288806
(1631416515.751164) can0 002#005A700BD5000000
(1631416515.752132) can0 280#0302100000000000
(1631416515.756164) can0 0D0#A8FF00000000FF00
(1631416515.757009) can0 0D1#00001D80
(1631416515.757009) can0 0D2#0000FFFF10000000
(1631416515.757010) can0 0D3#8006E00F000045
(1631416515.757010) can0 0D4#0000000000000000
(1631416515.758833) can0 140#00CAFC42000009A1
(1631416515.759957) can0 141#7326102700C32703
(1631416515.759958) can0 378#5100000000000000
(1631416515.761182) can0 002#005A700DD7000000
(1631416515.762068) can0 156#010000000000001A
(1631416515.762069) can0 282#9F10008E91C02A04
(1631416515.762070) can0 6D0#0000000000000000
(1631416515.763201) can0 372#00E0000000000000
(1631416515.766810) can0 152#E9AC00000000108C
(1631416515.767805) can0 284#0101000E00000000
(1631416515.768743) can0 140#00CBFC4200000921
(1631416515.769739) can0 141#73261027FF822703
(1631416515.769739) can0 144#C001981503288806
(1631416515.770825) can0 002#005A700FD9000000
(1631416515.771786) can0 280#0303100000000000
(1631416515.775836) can0 0D0#A8FF00000000FF01
(1631416515.776839) can0 0D1#00001D80
(1631416515.776839) can0 0D2#0000FFFF10000000
(1631416515.776840) can0 0D3#8006E00F000046
(1631416515.776840) can0 0D4#0000000000000000
(1631416515.776840) can0 376#FA03
(1631416515.778565) can0 140#00CCFC42000009A1
(1631416515.779798) can0 141#73261027FF822703
(1631416515.780916) can0 002#005A7001CB000000
(1631416515.782004) can0 156#010000000000001A
(1631416515.786861) can0 152#E1BC00000000108C
(1631416515.788799) can0 140#00CD044300000921
(1631416515.789849) can0 141#73261027FEC22703
(1631416515.789850) can0 144#C000961503288806
(1631416515.789850) can0 360#AB01007F15469100
(1631416515.789850) can0 361#002200D80D000000
(1631416515.790822) can0 6FC#0F00000000024600
(1631416515.791918) can0 002#005A7003CD000000
(1631416515.791919) can0 280#0304100000000000
(1631416515.796110) can0 0D0#A8FF00000000FF01
(1631416515.797031) can0 0D1#00001D80
(1631416515.797032) can0 0D2#0000FFFF10000000
(1631416515.797032) can0 0D3#0006E00F000047
(1631416515.797032) can0 0D4#0000000000000000
(1631416515.798164) can0 25C#A700000000000000
(1631416515.799364) can0 140#00CE044300000921
(1631416515.799365) can0 141#7326102700C32703
(1631416515.801077) can0 002#005A7005CF000000
(1631416515.802078) can0 156#010000000000001A
(1631416515.806923) can0 152#E9CC00000000108C
(1631416515.808800) can0 140#00CF0443000009A1
(1631416515.809819) can0 141#7326102700C32703
(1631416515.809819) can0 144#C000961503288806
(1631416515.809820) can0 380#130A00000000001D
(1631416515.811071) can0 002#005A7007D1000000
(1631416515.812039) can0 280#0305100000000000
(1631416515.812039) can0 282#9F20008E91C02A04
(1631416515.815978) can0 0D0#A8FF00000000FF01
(1631416515.817223) can0 0D1#00001D80
(1631416515.817224) can0 0D2#0000FFFF10000000
(1631416515.817224) can0 0D3#0006E00F000048
(1631416515.817224) can0 0D4#0000000000000000
(1631416515.818817) can0 140#00C00443000009A1
(1631416515.819933) can0 141#7326102701832703
(1631416515.821079) can0 002#005A7009D3000000
(1631416515.822035) can0 156#010000000000001A
(1631416515.822036) can0 3D1#E210000075000006
(1631416515.827031) can0 152#E1DC00000000108C
(1631416515.828049) can0 376#FA03
(1631416515.829056) can0 140#00C1FE42000009A1
(1631416515.829057) can0 141#7326102701832703
(1631416515.830052) can0 144#C001971503288806
(1631416515.831077) can0 002#005A700BD5000000
(1631416515.831930) can0 280#0306100000000000
(1631416515.836001) can0 0D0#A8FF00000000FF01
(1631416515.837125) can0 0D1#00001D80
(1631416515.837125) can0 0D2#0000FFFF10000000
(1631416515.837126) can0 0D3#8006E00F000049
(1631416515.837126) can0 0D4#0000000000000000
(1631416515.838686) can0 140#00C2FE42000009A1
(1631416515.839867) can0 141#7326102700C32703
(1631416515.839868) can0 360#A801007F15469100
(1631416515.839868) can0 361#002200D80E000000
(1631416515.840963) can0 002#005A700DD7000000
(1631416515.842093) can0 156#010000000000001A
(1631416515.846798) can0 152#E1EC00000000108C
(1631416515.848530) can0 140#00C3FE4200000921
(1631416515.849518) can0 141#7326102700C32703
(1631416515.849519) can0 144#C001971503288806
(1631416515.850799) can0 002#005A700FD9000000
(1631416515.851912) can0 280#0307100000000000
(1631416515.855946) can0 0D0#A8FF00000000FF01
(1631416515.856999) can0 0D1#00001D80
(1631416515.856999) can0 0D2#0000FFFF10000000
(1631416515.857000) can0 0D3#8006E00F00004A
(1631416515.857000) can0 0D4#0000000000000000
(1631416515.858070) can0 25C#2000000000000000
(1631416515.859263) can0 140#00C4FE42000009A1
(1631416515.859264) can0 141#7326102700C32703
(1631416515.861043) can0 002#005A7001CB000000
(1631416515.861989) can0 156#010000000000001A
(1631416515.861990) can0 282#A030008E91C02A04
(1631416515.863024) can0 372#00F8000000000000
(1631416515.866895) can0 152#E9FC00000000108C
(1631416515.868142) can0 284#0102000E00000000
(1631416515.868904) can0 140#00C5034300000921
(1631416515.870117) can0 141#7326102700C32703
(1631416515.870118) can0 144#C000961503288806
(1631416515.871177) can0 002#005A7003CD000000
(1631416515.872128) can0 280#0308100000000000
(1631416515.876211) can0 0D0#A8FF00000000FF01
(1631416515.877248) can0 0D1#00001D80
(1631416515.877249) can0 0D2#0000FFFF10000000
(1631416515.877250) can0 0D3#0006E00F00004B
(1631416515.877250) can0 0D4#0000000000000000
(1631416515.877251) can0 376#FA03
(1631416515.878910) can0 140#00C6034300000921
(1631416515.880032) can0 141#7326102701832703
(1631416515.881185) can0 002#005A7005CF000000
(1631416515.882199) can0 156#010000000000001A
(1631416515.887081) can0 152#E90C00000000108C
(1631416515.888854) can0 140#00C70343000009A1
(1631416515.889914) can0 141#7326102701832703
(1631416515.889915) can0 144#C000961503288806
(1631416515.889916) can0 360#AB01007F15469100
(1631416515.889916) can0 361#003200D80F000000
(1631416515.890840) can0 6FC#0000000000033100
(1631416515.891920) can0 002#005A7007D1000000
(1631416515.891921) can0 280#0309100000000000
(1631416515.896135) can0 0D0#A8FF00000000FF01
(1631416515.897253) can0 0D1#00001D80
(1631416515.897254) can0 0D2#0000FFFF10000000
(1631416515.897254) can0 0D3#8006E00F00004C
(1631416515.897255) can0 0D4#0000000000000000
(1631416515.898887) can0 140#00C80343000009A1
(1631416515.899999) can0 141#7326102701832703
(1631416515.901180) can0 002#005A7009D3000000
(1631416515.902150) can0 156#010000000000001A
(1631416515.906977) can0 152#E11C00000000108C
(1631416515.908922) can0 140#00C9FA42000009A1
(1631416515.909915) can0 141#7326102701832103
(1631416515.909916) can0 144#C001981503288806
(1631416515.909916) can0 380#140A00000000001E
(1631416515.911183) can0 002#005A700BD5000000
(1631416515.912152) can0 280#030A100000000000
(1631416515.913181) can0 282#A040008E91C02A04
(1631416515.916089) can0 0D0#A8FF00000000FF01
(1631416515.917223) can0 0D1#00001D80
(1631416515.917224) can0 0D2#0000FFFF10000000
(1631416515.917224) can0 0D3#0006E00F00004D
(1631416515.917225) can0 0D4#0000000000000000
(1631416515.918636) can0 25C#A100000000000000
(1631416515.919824) can0 140#00CAFA42000009A1
(1631416515.919825) can0 141#7326102700C32103
(1631416515.921085) can0 002#005A700DD7000000
(1631416515.922163) can0 156#010000000000001A
(1631416515.922164) can0 3D1#E310000075000006
(1631416515.926964) can0 152#E12C00000000108C
(1631416515.928162) can0 376#FA03
(1631416515.929090) can0 140#00CBFA4200000921
(1631416515.929091) can0 141#73261027FF822103
(1631416515.930024) can0 144#C001981503288806
(1631416515.931145) can0 002#005A700FD9000000
(1631416515.932121) can0 280#030B100000000000
(1631416515.936094) can0 0D0#A8FF00000000FF01
(1631416515.937250) can0 0D1#00001D80
(1631416515.937251) can0 0D2#0000FFFF10000000
(1631416515.937252) can0 0D3#0006E00F00004E
(1631416515.937252) can0 0D4#0000000000000000
(1631416515.938816) can0 140#00CCFA42000009A1
(1631416515.940000) can0 141#73261027FEC22103
(1631416515.940001) can0 360#A601007F15469100
(1631416515.940001) can0 361#003200D800000000
(1631416515.941184) can0 002#005A7001CB000000
(1631416515.942209) can0 156#010000000000001A
(1631416515.946976) can0 152#E93C00000000108C
(1631416515.948892) can0 140#00CD014300000921
(1631416515.949913) can0 141#73261027FEC22103
(1631416515.949914) can0 144#C000961503288806
(1631416515.951172) can0 002#005A7003CD000000
(1631416515.952130) can0 280#030C100000000000
(1631416515.956049) can0 0D0#A8FF00000000FE01
(1631416515.957224) can0 0D1#00001D80
(1631416515.957225) can0 0D2#0000FFFF10000000
(1631416515.957225) can0 0D3#8006E00F00004F
(1631416515.957226) can0 0D4#0000000000000000
(1631416515.958138) can0 6FA#07C1002801
(1631416515.959183) can0 140#00CE014300000921
(1631416515.959184) can0 141#73261027FEC22103
(1631416515.961181) can0 002#005A7005CF000000
(1631416515.962152) can0 156#010000000000001A
(1631416515.962153) can0 282#9F50008E91C02A04
(1631416515.962987) can0 6D0#0000000000000000
(1631416515.962988) can0 372#0008000000000000
(1631416515.966886) can0 284#0103000E00000000
(1631416515.967977) can0 152#E94C00000000148C
(1631416515.967978) can0 154#00000000000006
(1631416515.969064) can0 140#00CF0143000009A1
(1631416515.970030) can0 141#73261027FF822103
(1631416515.970032) can0 144#C000961503288806
(1631416515.971205) can0 002#005A7007D1000000
(1631416515.972143) can0 280#030D100000000000
(1631416515.976117) can0 0D0#A8FF00000000FF01
(1631416515.977213) can0 0D1#00001D80
(1631416515.977214) can0 0D2#0000FFFF10000000
(1631416515.977215) can0 0D3#0006E00F000050
(1631416515.977215) can0 0D4#0000000000000000
(1631416515.978221) can0 25C#A200000000000000
(1631416515.978222) can0 376#FA03
(1631416515.978223) can0 6FB#0800000000
(1631416515.979247) can0 140#00C00143000009A1
(1631416515.979249) can0 141#73261027FF822103
(1631416515.981176) can0 002#005A7009D3000000
(1631416515.982004) can0 156#010000000000001A
(1631416515.987051) can0 152#E15C00000000148C
(1631416515.988788) can0 140#00C1F742000009A1
(1631416515.989903) can0 141#73261027FF822103
(1631416515.989904) can0 144#C000991503288806
(1631416515.989905) can0 360#A601007F15469100
(1631416515.989905) can0 361#002200D801000000
(1631416515.990831) can0 6FC#0100000000045600
(1631416515.991870) can0 002#005A700BD5000000
(1631416515.991871) can0 280#030E100000000000
(1631416515.996127) can0 0D0#A8FF00000000FF01
(1631416515.997250) can0 0D1#00001D80
(1631416515.997251) can0 0D2#0000FFFF00200000
(1631416515.997251) can0 0D3#8006E00F000051
(1631416515.997252) can0 0D4#0000000000000000
(1631416515.998861) can0 140#00C2F742000009A1
(1631416515.999972) can0 141#73261027FDC22103
(1631416516.001165) can0 002#005A700DD7000000
(1631416516.002163) can0 156#010000000000001A
(1631416516.003194) can0 6C8#8004806900000000
(1631416516.006980) can0 152#E16C00000000148C
(1631416516.008640) can0 140#00C3F74200000921
(1631416516.009847) can0 141#73261027FC822103
(1631416516.009848) can0 144#C000991503288806
(1631416516.010841) can0 380#150A00000000001F
(1631416516.011963) can0 002#005A700FD9000000
(1631416516.011964) can0 280#030F100000000000
(1631416516.012932) can0 282#9F60008E91C02A04
(1631416516.016185) can0 0D0#A8FF00000000FF01
(1631416516.017223) can0 0D1#00001D80
(1631416516.017223) can0 0D2#0000FFFF00200000
(1631416516.017224) can0 0D3#8006E00F000052
(1631416516.017224) can0 0D4#0000000000000000
(1631416516.018837) can0 140#00C4F742000009A1
(1631416516.019777) can0 141#73261027FC822103
(1631416516.021081) can0 002#005A7001CB000000
(1631416516.022062) can0 156#010000000000001A
(1631416516.022063) can0 3D1#E210000075000006
(1631416516.026992) can0 152#E97C00000000148C
(1631416516.028023) can0 376#FA03
(1631416516.029032) can0 140#00C5FA42000009A1
(1631416516.029033) can0 141#73261027FBC22103
(1631416516.030037) can0 144#C001981503288806
(1631416516.031085) can0 002#005A7003CD000000
(1631416516.032035) can0 280#0300100000000000
(1631416516.036196) can0 0D0#A8FF00000000FF01
(1631416516.037065) can0 0D1#00001D80
(1631416516.037066) can0 0D2#0000FFFF00200000
(1631416516.037066) can0 0D3#0006E00F000053
(1631416516.037067) can0 0D4#0000000000000000
(1631416516.038393) can0 25C#2300000000000000
(1631416516.039395) can0 140#00C6FA42000009A1
(1631416516.039396) can0 141#73261027FBC22103
(1631416516.039396) can0 360#A801007F15469100
(1631416516.040375) can0 361#002200D802000000
(1631416516.041470) can0 002#005A7005CF000000
(1631416516.042483) can0 156#010000000000001A
(1631416516.047117) can0 152#E98C00000000148C
(1631416516.048848) can0 140#00C7FA4200000921
(1631416516.049857) can0 141#73261027FBC22103
(1631416516.049859) can0 144#C001981503288806
(1631416516.051167) can0 002#005A7007D1000000
(1631416516.052079) can0 280#0301100000000000
(1631416516.056243) can0 0D0#A8FF00000000FF01
(1631416516.057309) can0 0D1#00001D80
(1631416516.057310) can0 0D2#0000FFFF00200000
(1631416516.057310) can0 0D3#8006E00F000054
(1631416516.057311) can0 0D4#0000000000000000
(1631416516.058127) can0 6CF#002A000000000000
(1631416516.059223) can0 140#00C8FA4200000921
(1631416516.059224) can0 141#73261027FBC22103
(1631416516.061033) can0 002#005A7009D3000000
(1631416516.062209) can0 156#010000000000001A
(1631416516.062210) can0 282#A070008E91C02A04
(1631416516.063201) can0 372#0010000000000000
(1631416516.066867) can0 284#0104000E00000000
(1631416516.067892) can0 152#E19C00000000148C
(1631416516.068681) can0 140#00C9F14200000921
(1631416516.069809) can0 141#73261027FA822103
(1631416516.069810) can0 144#C0009A1503288806
(1631416516.071207) can0 002#005A700BD5000000
(1631416516.072093) can0 280#0302100000000000
(1631416516.076262) can0 0D0#A8FF00000000FF01
(1631416516.077305) can0 0D1#00001D80
(1631416516.077307) can0 0D2#0000FFFF00200000
(1631416516.077308) can0 0D3#0006E00F000055
(1631416516.077309) can0 0D4#0000000000000000
(1631416516.077309) can0 376#FA03
(1631416516.078760) can0 140#00CAF14200000921
(1631416516.079878) can0 141#73261027F8C22103
(1631416516.081156) can0 002#005A700DD7000000
(1631416516.082203) can0 156#010000000000001A
(1631416516.087080) can0 152#E1AC00000000148C
(1631416516.088811) can0 140#00CBF142000009A1
(1631416516.089859) can0 141#73261027F7C22103
(1631416516.089860) can0 144#C0009A1503288806
(1631416516.089860) can0 360#A401007F15469100
(1631416516.089861) can0 361#003200D803000000
(1631416516.090793) can0 6FC#0200000000054100
(1631416516.091886) can0 002#005A700FD9000000
(1631416516.091887) can0 280#0303100000000000
(1631416516.096157) can0 0D0#A8FF00000000FF01
(1631416516.097306) can0 0D1#00001D80
(1631416516.097306) can0 0D2#0000FFFF00200000
(1631416516.097307) can0 0D3#0006E00F000056
(1631416516.097307) can0 0D4#0000000000000000
(1631416516.098286) can0 25C#A400000000000000
(1631416516.099178) can0 140#00CCF14200000921
(1631416516.099179) can0 141#73261027F6822103
(1631416516.101096) can0 002#005A7001CB000000
(1631416516.102234) can0 156#010000000000001A
(1631416516.107086) can0 152#E9BC00000000148C
(1631416516.108787) can0 140#00CDFA4200000921
(1631416516.109871) can0 141#73261027F7C22103
(1631416516.109873) can0 144#C001981503288806
(1631416516.110790) can0 380#160A000000000020
(1631416516.111889) can0 002#005A7003CD000000
(1631416516.111890) can0 280#0304100000000000
(1631416516.112898) can0 282#A080008E91C02A04
(1631416516.116274) can0 0D0#A8FF00000000FF01
(1631416516.117118) can0 0D1#00001D80
(1631416516.117119) can0 0D2#0000FFFF00200000
(1631416516.117119) can0 0D3#8006E00F000057
(1631416516.117119) can0 0D4#0000000000000000
(1631416516.118860) can0 140#00CEFA4200000921
(1631416516.119918) can0 141#73261027F8C22103
(1631416516.121197) can0 002#005A7005CF000000
(1631416516.122095) can0 156#010000000000001A
(1631416516.122096) can0 3D1#E310000075000006
(1631416516.127121) can0 152#E1CC00000000148C
(1631416516.128130) can0 376#FA03
(1631416516.128132) can0 660#FFFF01DD00000413
(1631416516.129032) can0 140#00CFFA42000009A1
(1631416516.129033) can0 141#73261027F8C22103
(1631416516.130011) can0 144#C001981503288806
(1631416516.131207) can0 002#005A7007D1000000
(1631416516.132132) can0 280#0305100000000000
(1631416516.132133) can0 281#2894505070000000
(1631416516.132134) can0 6D1#DFCE000000000000
(1631416516.136322) can0 0D0#A8FF00000000FF01
(1631416516.137317) can0 0D1#00001D80
(1631416516.137318) can0 0D2#0000FFFF00200000
(1631416516.137319) can0 0D3#8006E00F000058
(1631416516.137320) can0 0D4#0000000000000000
(1631416516.138754) can0 140#00C0FA42000009A1
(1631416516.139863) can0 141#73261027F8C22103
(1631416516.139864) can0 360#A901007F15469100
(1631416516.139865) can0 361#002200D804000000
(1631416516.141164) can0 002#005A7009D3000000
(1631416516.142159) can0 156#010000000000001A
(1631416516.147100) can0 152#E9DC00000000148C
(1631416516.148840) can0 140#00C1F04200000921
(1631416516.149833) can0 141#73261027F7C22103
(1631416516.149834) can0 144#C0009A1503288806
(1631416516.151133) can0 002#005A700BD5000000
(1631416516.152143) can0 280#0306100000000000
(1631416516.156158) can0 0D0#A8FF00000000FF01
(1631416516.157263) can0 0D1#00001D80
(1631416516.157265) can0 0D2#0000FFFF00200000
(1631416516.157265) can0 0D3#0006E00F000059
(1631416516.157266) can0 0D4#0000000000000000
(1631416516.158573) can0 25C#2500000000000000
(1631416516.159632) can0 140#00C2F04200000921
(1631416516.159633) can0 141#73261027F5822103
(1631416516.161153) can0 002#005A700DD7000000
(1631416516.162190) can0 156#010000000000001A
(1631416516.162191) can0 282#9E90008E91C02A04
(1631416516.163018) can0 6D0#0000000000000000
(1631416516.163019) can0 372#0020000000000000
(1631416516.166889) can0 284#0105000E00000000
(1631416516.167620) can0 152#E9EC00000000148C
(1631416516.168684) can0 140#00C3F042000009A1
(1631416516.169823) can0 141#73261027F5822103
(1631416516.169824) can0 144#C0009A1503288806
(1631416516.171079) can0 002#005A700FD9000000
(1631416516.172061) can0 280#0307100000000000
(1631416516.176116) can0 0D0#A8FF00000000FF01
(1631416516.177310) can0 0D1#00001D80
(1631416516.177311) can0 0D2#0000FFFF00200000
(1631416516.177312) can0 0D3#0006E00F00005A
(1631416516.177313) can0 0D4#0000000000000000
(1631416516.177313) can0 376#FA03
(1631416516.178863) can0 140#00C4F04200000921
(1631416516.179786) can0 141#73261027F4C22103
(1631416516.181200) can0 002#005A7001CB000000
(1631416516.182012) can0 156#010000000000001A
(1631416516.187074) can0 152#E1FC00000000148C
(1631416516.188788) can0 140#00C5F542000009A1
(1631416516.189865) can0 141#73261027F4C22103
(1631416516.189866) can0 144#C000991503288806
(1631416516.189866) can0 360#A601007F15469100
(1631416516.189867) can0 361#003200D805000000
(1631416516.190656) can0 6FC#0300000000063200
(1631416516.191865) can0 002#005A7003CD000000
(1631416516.191866) can0 280#0308100000000000
(1631416516.196133) can0 0D0#A8FF00000000FE01
(1631416516.197253) can0 0D1#00001C00
(1631416516.197254) can0 0D2#0000FFFF00200000
(1631416516.197254) can0 0D3#8006E00F00005B
(1631416516.197255) can0 0D4#0000000000000000
(1631416516.198871) can0 140#00C6F542000009A1
(1631416516.199888) can0 141#73261027F5822103
(1631416516.201181) can0 002#005A7005CF000000
(1631416516.202199) can0 156#010000000000001A
(1631416516.206950) can0 152#E10C00000000148C
(1631416516.208732) can0 140#00C7F54200000921
(1631416516.209860) can0 141#73261027F5822103
(1631416516.209861) can0 144#C000991503288806
(1631416516.210886) can0 380#170A000000000021
(1631416516.211889) can0 002#005A7007D1000000
(1631416516.211890) can0 280#0309100000000000
(1631416516.212811) can0 282#9EA0008E91C02A04
(1631416516.216233) can0 0D0#A8FF00000000FE01
(1631416516.217166) can0 0D1#00001B80
(1631416516.217167) can0 0D2#0000FFFF00200000
(1631416516.217168) can0 0D3#0006E00F00005C
(1631416516.217169) can0 0D4#0000000000000000
(1631416516.218264) can0 25C#2600000000000000
(1631416516.219287) can0 140#00C8F54200000921
(1631416516.219288) can0 141#73261027F5822103
(1631416516.221117) can0 002#005A7009D3000000
(1631416516.222191) can0 156#010000000000001A
(1631416516.222192) can0 3D1#E310000075000006
(1631416516.227100) can0 152#E91C00000000148C
(1631416516.227885) can0 376#FA03
(1631416516.229020) can0 140#00C9EE42000009A1
(1631416516.229021) can0 141#73261027F4C22103
(1631416516.230117) can0 144#C0019B1503288806
(1631416516.231162) can0 002#005A700BD5000000
(1631416516.231998) can0 280#030A100000000000
(1631416516.236122) can0 0D0#A8FF00000000FF00
(1631416516.237274) can0 0D1#00001900
(1631416516.237275) can0 0D2#0000FFFF00200000
(1631416516.237275) can0 0D3#8006E00F00005D
(1631416516.237276) can0 0D4#0000000000000000
(1631416516.238803) can0 140#00CAEE42000009A1
(1631416516.239844) can0 141#73261027F3822103
(1631416516.239845) can0 360#A201007F15469100
(1631416516.239846) can0 361#003200D806000000
(1631416516.241156) can0 002#005A700DD7000000
(1631416516.242194) can0 156#010000000000001A
(1631416516.247097) can0 152#E92C00000000148C
(1631416516.248805) can0 140#00CBEE4200000921
(1631416516.249637) can0 141#73261027F2C22103
(1631416516.249638) can0 144#C0019B1503288806
(1631416516.251037) can0 002#005A700FD9000000
(1631416516.252172) can0 280#030B100000000000
(1631416516.256216) can0 0D0#A8FF00000000FF00
(1631416516.257250) can0 0D1#00001780
(1631416516.257251) can0 0D2#0000FFFF00200000
(1631416516.257252) can0 0D3#8006E00F00005E
(1631416516.257252) can0 0D4#0000000000000000
(1631416516.258739) can0 140#00CCEE42000009A1
(1631416516.259844) can0 141#73261027F2C22103
(1631416516.261198) can0 002#005A7001CB000000
(1631416516.262000) can0 156#010000000000001A
(1631416516.262001) can0 282#9EB0008E91C02A04
(1631416516.263226) can0 372#0038000000000000
(1631416516.266628) can0 284#0106000E00000000
(1631416516.267717) can0 152#E13C00000000148C
(1631416516.268852) can0 140#00CDF94200000921
(1631416516.269744) can0 141#73261027F3822103
(1631416516.269745) can0 144#C001981503288806
(1631416516.271207) can0 002#005A7003CD000000
(1631416516.271995) can0 280#030C100000000000
(1631416516.276138) can0 0D0#A8FF00000000FF01
(1631416516.277225) can0 0D1#00001480
(1631416516.277226) can0 0D2#0000FFFF00200000
(1631416516.277227) can0 0D3#0006E00F00005F
(1631416516.277227) can0 0D4#0000000000000000
(1631416516.277228) can0 376#FA03
(1631416516.278827) can0 25C#A700000000000000
(1631416516.279723) can0 140#00CEF94200000921
(1631416516.279724) can0 141#73261027F4C22103
(1631416516.281214) can0 002#005A7005CF000000
(1631416516.282018) can0 156#010000000000001A
(1631416516.287024) can0 152#E94C00000000148C
(1631416516.288771) can0 140#00CFF942000009A1
(1631416516.289815) can0 141#73261027F5822103
(1631416516.289816) can0 144#C001981503288806
(1631416516.289816) can0 360#A701007F15469100
(1631416516.289817) can0 361#002200D807000000
(1631416516.290648) can0 6FC#0400000000075600
(1631416516.291847) can0 002#005A7007D1000000
(1631416516.291848) can0 280#030D100000000000
(1631416516.296123) can0 0D0#A8FF00000000FF01
(1631416516.297099) can0 0D1#00001280
(1631416516.297100) can0 0D2#0000FFFF00200000
(1631416516.297101) can0 0D3#0006E00F000060
(1631416516.297101) can0 0D4#0000000000000000
(1631416516.298479) can0 140#00C0F942000009A1
(1631416516.299725) can0 141#73261027F5822103
(1631416516.301076) can0 002#005A7009D3000000
(1631416516.302139) can0 156#010000000000001A
(1631416516.307134) can0 152#E15C00000000148C
(1631416516.308784) can0 140#00C1EE4200000921
(1631416516.309744) can0 141#73261027F4C22103
(1631416516.309744) can0 144#C0019B1503288806
(1631416516.311097) can0 002#005A700BD5000000
(1631416516.312091) can0 280#030E100000000000
(1631416516.312092) can0 380#180A000000000022
(1631416516.313145) can0 282#9EC0008E91C02A04
(1631416516.316045) can0 0D0#A8FF00000000FF01
(1631416516.317092) can0 0D1#00001180
(1631416516.317093) can0 0D2#0000FFFF00200000
(1631416516.317093) can0 0D3#8006E00F000061
(1631416516.317093) can0 0D4#0000000000000000
(1631416516.318648) can0 140#00C2EE4200000921
(1631416516.319745) can0 141#73261027F3822103
(1631416516.321130) can0 002#005A700DD7000000
(1631416516.322058) can0 156#010000000000001A
(1631416516.322058) can0 3D1#E310000075000006
(1631416516.326990) can0 152#E16C00000000148C
(1631416516.328015) can0 376#FA03
(1631416516.329031) can0 140#00C3EE42000009A1
(1631416516.329032) can0 141#73261027F2C22103
(1631416516.330032) can0 144#C0019B1503288806
(1631416516.331099) can0 002#005A700FD9000000
(1631416516.332068) can0 280#030F100000000000
(1631416516.336069) can0 0D0#A8FF00000000FF01
(1631416516.337181) can0 0D1#00000F80
(1631416516.337182) can0 0D2#0000FFFF00200000
(1631416516.337182) can0 0D3#8006E00F000062
(1631416516.337183) can0 0D4#0000000000000000
(1631416516.338151) can0 25C#2000000000000000
(1631416516.339173) can0 140#00C4EE4200000921
(1631416516.339173) can0 141#73261027F2C22103
(1631416516.339174) can0 360#A101007F15469100
(1631416516.340050) can0 361#002200D808000000
(1631416516.341214) can0 002#005A7001CB000000
(1631416516.342241) can0 156#010000000000001A
(1631416516.347009) can0 152#E97C00000000148C
(1631416516.348526) can0 140#00C5F642000009A1
(1631416516.349537) can0 141#73261027F2C22103
(1631416516.349538) can0 144#C000991503288806
(1631416516.350802) can0 002#005A7003CD000000
(1631416516.351820) can0 280#0300100000000000
(1631416516.355997) can0 0D0#A8FF00000000FF01
(1631416516.357237) can0 0D1#00000E00
(1631416516.357238) can0 0D2#0000FFFF00200000
(1631416516.357238) can0 0D3#0006E00F000063
(1631416516.357238) can0 0D4#0000000000000000
(1631416516.358728) can0 140#00C6F642000009A1
(1631416516.359780) can0 141#73261027F3822103
(1631416516.361102) can0 002#005A7005CF000000
(1631416516.362102) can0 156#010000000000001A
(1631416516.362103) can0 282#9FD0008E91C02A04
(1631416516.363093) can0 6D0#0000000000000000
(1631416516.363094) can0 372#0040000000000000
(1631416516.366690) can0 284#0107000E00000000
(1631416516.367855) can0 152#E98C00000000148C
(1631416516.368611) can0 140#00C7F64200000921
(1631416516.369603) can0 141#73261027F3822103
(1631416516.369604) can0 144#C000991503288806
(1631416516.371113) can0 002#005A7007D1000000
(1631416516.372133) can0 280#0301100000000000
(1631416516.376275) can0 0D0#A8FF00000000FF01
(1631416516.377291) can0 0D1#00000D00
(1631416516.377292) can0 0D2#0000FFFF00200000
(1631416516.377293) can0 0D3#8006E00F000064
(1631416516.377294) can0 0D4#0000000000000000
(1631416516.377295) can0 376#FA03
(1631416516.378709) can0 140#00C8F64200000921
(1631416516.379840) can0 141#73261027F4C22103
(1631416516.381203) can0 002#005A7009D3000000
(1631416516.381990) can0 156#010000000000001A
(1631416516.386609) can0 37A#0000000000000000
(1631416516.387606) can0 152#E19C00000000148C
(1631416516.388760) can0 140#00C9EF4200000921
(1631416516.389824) can0 141#73261027F3822103
(1631416516.389825) can0 144#C0019B1503288806
(1631416516.389825) can0 360#A201007F15469100
(1631416516.389826) can0 361#003200D809000000
(1631416516.390824) can0 6FC#0500000000083600
(1631416516.391589) can0 002#005A700BD5000000
(1631416516.391590) can0 280#0302100000000000
(1631416516.396278) can0 0D0#A8FF00000000FF01
(1631416516.397134) can0 0D1#00000C80
(1631416516.397136) can0 0D2#0000FFFF00200000
(1631416516.397136) can0 0D3#0006E00F000065
(1631416516.397137) can0 0D4#0000000000000000
(1631416516.398537) can0 25C#A100000000000000
(1631416516.399616) can0 140#00CAEF4200000921
(1631416516.399617) can0 141#73261027F2C22103
(1631416516.400996) can0 002#005A700DD7000000
(1631416516.401904) can0 156#010000000000001A
(1631416516.407031) can0 152#E1AC00000000148C
(1631416516.408697) can0 140#00CBEF42000009A1
(1631416516.409827) can0 141#73261027F2C22103
(1631416516.409828) can0 144#C0019B1503288806
(1631416516.411174) can0 002#005A700FD9000000
(1631416516.412136) can0 280#0303100000000000
(1631416516.412137) can0 380#190A000000000023
(1631416516.413201) can0 282#9FE0008E91C02A04
(1631416516.416155) can0 0D0#A8FF00000000FF01
(1631416516.417036) can0 0D1#00000A80
(1631416516.417036) can0 0D2#0000FFFF00200000
(1631416516.417037) can0 0D3#0006E00F000066
(1631416516.417037) can0 0D4#0000000000000000
(1631416516.418950) can0 140#00CCF74200000921
(1631416516.420083) can0 141#73261027F2C22103
(1631416516.421185) can0 002#005A7001CB000000
(1631416516.422139) can0 156#010000000000001A
(1631416516.422140) can0 3D1#E210000075000006
(1631416516.427112) can0 152#E9BC00000000148C
(1631416516.428083) can0 376#FA03
(1631416516.429023) can0 140#00CDF742000009A1
(1631416516.429024) can0 141#73261027F2C22103
(1631416516.430147) can0 144#C000991503288806
(1631416516.431156) can0 002#005A7003CD000000
(1631416516.432156) can0 280#0304100000000000
(1631416516.436226) can0 0D0#A8FF00000000FF01
(1631416516.437254) can0 0D1#00000980
(1631416516.437256) can0 0D2#0000FFFF00200000
(1631416516.437256) can0 0D3#8006E00F000067
(1631416516.437257) can0 0D4#0000000000000000
(1631416516.438775) can0 140#00CEF742000009A1
(1631416516.439826) can0 141#73261027F3822103
(1631416516.439827) can0 360#A601007F16469100
(1631416516.439828) can0 361#003200D80A000000
(1631416516.441121) can0 002#005A7005CF000000
(1631416516.442226) can0 156#010000000000001A
(1631416516.447111) can0 152#E1CC00000000148C
(1631416516.448819) can0 140#00CFF74200000921
(1631416516.449739) can0 141#73261027F4C22103
(1631416516.449740) can0 144#C000991503288806
(1631416516.451101) can0 002#005A7007D1000000
(1631416516.452144) can0 280#0305100000000000
(1631416516.456242) can0 0D0#A8FF00000000FF01
(1631416516.457294) can0 0D1#00000700
(1631416516.457296) can0 0D2#0000FFFF00200000
(1631416516.457296) can0 0D3#8006E00F000068
(1631416516.457297) can0 0D4#0000000000000000
(1631416516.458307) can0 25C#A200000000000000
(1631416516.459343) can0 140#00C0F14200000921
(1631416516.459344) can0 141#73261027F4C22103
(1631416516.461187) can0 002#005A7009D3000000
(1631416516.462201) can0 156#010000000000001A
(1631416516.462203) can0 282#A0F0008E91C02A04
(1631416516.462971) can0 372#0058000000000000
(1631416516.466641) can0 284#0108000E00000000
(1631416516.467451) can0 152#E9DC00000000148C
(1631416516.468812) can0 140#00C1F142000009A1
(1631416516.469616) can0 141#73261027F4C22103
(1631416516.469617) can0 144#C0009A1503288806
(1631416516.471232) can0 002#005A700BD5000000
(1631416516.472078) can0 280#0306100000000000
(1631416516.476253) can0 0D0#A8FF00000000FF01
(1631416516.477186) can0 0D1#00000680
(1631416516.477188) can0 0D2#0000FFFF00200000
(1631416516.477188) can0 0D3#0006E00F000069
(1631416516.477188) can0 0D4#0000000000000000
(1631416516.477189) can0 376#FA03
(1631416516.478800) can0 140#00C2F142000009A1
(1631416516.479726) can0 141#73261027F3822103
(1631416516.481103) can0 002#005A700DD7000000
(1631416516.482159) can0 156#010000000000001A
(1631416516.487075) can0 152#E9EC00000000148C
(1631416516.488776) can0 140#00C3F14200000921
(1631416516.489703) can0 141#73261027F3822103
(1631416516.489704) can0 144#C0009A1503288806
(1631416516.489705) can0 360#A201007F16469100
(1631416516.489705) can0 361#002200D80B000000
(1631416516.490796) can0 6FC#0600000000093900
(1631416516.491684) can0 002#005A700FD9000000
(1631416516.491685) can0 280#0307100000000000
(1631416516.496106) can0 0D0#A8FF00000000FF01
(1631416516.497289) can0 0D1#00000580
(1631416516.497291) can0 0D2#0000FFFF00200000
(1631416516.497291) can0 0D3#0006E00F00006A
(1631416516.497292) can0 0D4#0000000000000000
(1631416516.498703) can0 140#00C4F842000009A1
(1631416516.499806) can0 141#73261027F2C22103
(1631416516.500999) can0 002#005A7001CB000000
(1631416516.502301) can0 156#010000000000001A
(1631416516.507105) can0 152#E1FC00000000148C
(1631416516.508767) can0 140#00C5F84200000921
(1631416516.509796) can0 141#73261027F3822103
(1631416516.509797) can0 144#C000991503288806
(1631416516.511108) can0 002#005A7003CD000000
(1631416516.512026) can0 280#0308100000000000
(1631416516.512027) can0 380#1A0A000000000024
(1631416516.513006) can0 282#A000008E91C02A04
(1631416516.516063) can0 0D0#A8FF00000000FF01
(1631416516.517204) can0 0D1#00000380
(1631416516.517204) can0 0D2#0000FFFF00200000
(1631416516.517205) can0 0D3#8006E00F00006B
(1631416516.517205) can0 0D4#0000000000000000
(1631416516.518738) can0 140#00C6F84200000921
(1631416516.519723) can0 141#73261027F4C22103
(1631416516.519723) can0 25C#2300000000000000
(1631416516.520996) can0 002#005A7005CF000000
(1631416516.522119) can0 156#010000000000001A
(1631416516.522120) can0 3D1#E310000075000006
(1631416516.527020) can0 152#E10C00000000148C
(1631416516.527993) can0 376#FA03
(1631416516.528989) can0 140#00C7F842000009A1
(1631416516.528990) can0 141#73261027F5822103
(1631416516.530008) can0 144#C000991503288806
(1631416516.531115) can0 002#005A7007D1000000
(1631416516.531942) can0 280#0309100000000000
(1631416516.536099) can0 0D0#A8FF00000000FF01
(1631416516.537138) can0 0D1#00000080
(1631416516.537139) can0 0D2#0000FFFF00200000
(1631416516.537139) can0 0D3#0006E00F00006C
(1631416516.537139) can0 0D4#0000000000000000
(1631416516.538582) can0 140#00C8EC42000009A1
(1631416516.539685) can0 141#73261027F5822103
(1631416516.539686) can0 360#9F01007F16469100
(1631416516.539686) can0 361#003200D80C000000
(1631416516.540991) can0 002#005A7009D3000000
(1631416516.542068) can0 156#010000000000001A
(1631416516.546955) can0 152#E91C00000000148C
(1631416516.548617) can0 140#00C9EC4200000921
(1631416516.549662) can0 141#73261027F4C22103
(1631416516.549663) can0 144#C0019B1503288806
(1631416516.551064) can0 002#005A700BD5000000
(1631416516.552038) can0 280#030A100000000000
(1631416516.556075) can0 0D0#A8FF00000000FF01
(1631416516.557369) can0 0D1#00000080
(1631416516.557370) can0 0D2#0000FFFF00200000
(1631416516.557371) can0 0D3#8006E00F00006D
(1631416516.557371) can0 0D4#0000000000000000
(1631416516.558685) can0 140#00CAEC4200000921
(1631416516.559756) can0 141#73261027F2C22103
(1631416516.561210) can0 002#005A700DD7000000
(1631416516.562010) can0 156#010000000000001A
(1631416516.562011) can0 282#9E10008E91C02A04
(1631416516.563143) can0 6D0#0000000000000000
(1631416516.563144) can0 372#0068000000000000
(1631416516.566285) can0 284#0109000E00000000
(1631416516.567413) can0 152#E92C00000000148C
(1631416516.568717) can0 140#00CBEC42000009A1
(1631416516.569764) can0 141#73261027F1C22103
(1631416516.569765) can0 144#C0019B1503288806
(1631416516.571112) can0 002#005A700FD9000000
(1631416516.572161) can0 280#030B100000000000
(1631416516.576296) can0 0D0#A8FF00000000FF01
(1631416516.577344) can0 0D1#00000080
(1631416516.577345) can0 0D2#0000FFFF00200000
(1631416516.577345) can0 0D3#8006E00F00006E
(1631416516.577346) can0 0D4#0000000000000000
(1631416516.578311) can0 25C#A400000000000000
(1631416516.578312) can0 376#FA03
(1631416516.579270) can0 140#00CCF642000009A1
(1631416516.579271) can0 141#73261027F1C22103
(1631416516.581066) can0 002#005A7001CB000000
(1631416516.582217) can0 156#010000000000001A
(1631416516.587080) can0 152#E13C00000000148C
(1631416516.588709) can0 140#00CDF64200000921
(1631416516.589773) can0 141#73261027F1C22103
(1631416516.589774) can0 144#C000991503288806
(1631416516.589774) can0 360#A501007F16469100
(1631416516.589775) can0 361#002200D80D000000
(1631416516.590602) can0 6FC#07000000000A4C00
(1631416516.591780) can0 002#005A7003CD000000
(1631416516.591781) can0 280#030C100000000000
(1631416516.596196) can0 0D0#A8FF00000000FF01
(1631416516.597344) can0 0D1#00000080
(1631416516.597346) can0 0D2#0000FFFF00200000
(1631416516.597346) can0 0D3#0006E00F00006F
(1631416516.597347) can0 0D4#0000000000000000
(1631416516.598683) can0 140#00CEF64200000921
(1631416516.599769) can0 141#73261027F2C22103
(1631416516.601093) can0 002#005A7005CF000000
(1631416516.602352) can0 156#010000000000001A
(1631416516.606966) can0 152#E94C00000000148C
(1631416516.608749) can0 140#00CFF642000009A1
(1631416516.609581) can0 141#73261027F3822103
(1631416516.609581) can0 144#C000991503288806
(1631416516.611201) can0 002#005A7007D1000000
(1631416516.612076) can0 280#030D100000000000
(1631416516.612077) can0 380#1B0A000000000025
(1631416516.613226) can0 282#9E20008E91C02A04
(1631416516.616164) can0 0D0#A8FF00000000FF01
(1631416516.617320) can0 0D1#00000080
(1631416516.617322) can0 0D2#0000FFFF00200000
(1631416516.617323) can0 0D3#8006E00F000070
(1631416516.617323) can0 0D4#0000000000000000
(1631416516.618691) can0 140#00C0F14200000921
(1631416516.619781) can0 141#73261027F3822103
(1631416516.621136) can0 002#005A7009D3000000
(1631416516.622238) can0 156#010000000000001A
(1631416516.622239) can0 3D1#E310000075000006
(1631416516.627115) can0 152#E15C00000000148C
(1631416516.627910) can0 376#FA03
(1631416516.627911) can0 660#FFFF01DD00000418
(1631416516.629143) can0 140#00C1F142000009A1
(1631416516.629144) can0 141#73261027F3822103
(1631416516.629952) can0 144#C0009A1503288806
(1631416516.631177) can0 002#005A700BD5000000
(1631416516.632141) can0 280#030E100000000000
(1631416516.636314) can0 0D0#A8FF00000000FF01
(1631416516.637324) can0 0D1#00000080
(1631416516.637326) can0 0D2#0000FFFF00200000
(1631416516.637326) can0 0D3#0006E00F000071
(1631416516.637326) can0 0D4#0000000000000000
(1631416516.638749) can0 140#00C2F142000009A1
(1631416516.639784) can0 141#73261027F2C22103
(1631416516.639784) can0 25C#2500000000000000
(1631416516.639785) can0 360#A201007F16469100
(1631416516.639786) can0 361#002200D80E000000
(1631416516.641214) can0 002#005A700DD7000000
(1631416516.642218) can0 156#010000000000001A
(1631416516.647102) can0 152#E16C00000000148C
(1631416516.648006) can0 374#4808000000000000
(1631416516.649012) can0 140#00C3F14200000921
(1631416516.649013) can0 141#73261027F2C22103
(1631416516.650113) can0 144#C0009A1503288806
(1631416516.651223) can0 002#005A700FD9000000
(1631416516.652107) can0 280#030F100000000000
(1631416516.656228) can0 0D0#A8FF00000000FF01
(1631416516.657087) can0 0D1#00000080
(1631416516.657087) can0 0D2#0000FFFF00200000
(1631416516.657088) can0 0D3#0006E00F000072
(1631416516.657088) can0 0D4#0000000000000000
(1631416516.658540) can0 140#00C4F842000009A1
(1631416516.659677) can0 141#73261027F2C22103
(1631416516.661094) can0 002#005B7001CC000000
(1631416516.662133) can0 156#010000000000001A
(1631416516.663134) can0 282#9F30008E91C02A04
(1631416516.663135) can0 372#0070000000000000
(1631416516.666513) can0 284#010A000E00000000
(1631416516.667478) can0 152#E97C00000000148C
(1631416516.667479) can0 375#03000009A0002200
(1631416516.668649) can0 140#00C5F84200000921
(1631416516.669646) can0 141#73261027F3822103
(1631416516.669646) can0 144#C001981503288806
(1631416516.671050) can0 002#005A7003CD000000
(1631416516.672030) can0 280#0300100000000000
(1631416516.676098) can0 0D0#A7FF00000000FF01
(1631416516.677195) can0 0D1#00000080
(1631416516.677196) can0 0D2#0000FFFF00200000
(1631416516.677196) can0 0D3#8006E00F000073
(1631416516.677197) can0 0D4#0000000000000000
(1631416516.677197) can0 376#FA03
(1631416516.678670) can0 140#00C6F84200000921
(1631416516.679700) can0 141#73261027F4C22103
(1631416516.681134) can0 002#005A7005CF000000
(1631416516.682148) can0 156#010000000000001A
(1631416516.686971) can0 152#E98C00000000148C
(1631416516.688550) can0 140#00C7F842000009A1
(1631416516.689675) can0 141#73261027F4C22103
(1631416516.689676) can0 144#C001981503288806
(1631416516.689676) can0 360#A501007F16469100
(1631416516.689677) can0 361#003200D80F000000
(1631416516.690703) can0 6FC#08000000000B3900
(1631416516.691692) can0 002#005A7007D1000000
(1631416516.691693) can0 280#0301100000000000
(1631416516.696207) can0 0D0#A8FF00000000FF01
(1631416516.697220) can0 0D1#00000080
(1631416516.697221) can0 0D2#0000FFFF00200000
(1631416516.697221) can0 0D3#0006E00F000074
(1631416516.697221) can0 0D4#0000000000000000
(1631416516.698244) can0 25C#2600000000000000
(1631416516.699238) can0 140#00C8F34200000921
(1631416516.699239) can0 141#73261027F5822103
(1631416516.701083) can0 002#005A7009D3000000
(1631416516.702312) can0 156#010000000000001A
(1631416516.706829) can0 152#E19C00000000148C
(1631416516.708450) can0 140#00C9F342000009A1
(1631416516.709539) can0 141#73261027F5822103
(1631416516.709540) can0 144#C0009A1503288806
(1631416516.711089) can0 002#005A700BD5000000
(1631416516.712108) can0 280#0302100000000000
(1631416516.713125) can0 380#1C0A000000000026
(1631416516.713125) can0 282#9F40008E91C02A04
(1631416516.716029) can0 0D0#A8FF00000000FF01
(1631416516.717162) can0 0D1#00000080
(1631416516.717163) can0 0D2#0000FFFF00200000
(1631416516.717164) can0 0D3#8006E00F000075
(1631416516.717164) can0 0D4#0000000000000000
(1631416516.718673) can0 140#00CAF342000009A1
(1631416516.719719) can0 141#73261027F4C22103
(1631416516.721003) can0 002#005B700DD8000000
(1631416516.722077) can0 156#010000000000001A
(1631416516.723116) can0 3D1#E310000075000006
(1631416516.727010) can0 152#E1AC00000000148C
(1631416516.728011) can0 376#FA03
(1631416516.729036) can0 140#00CBF34200000921
(1631416516.729036) can0 141#73261027F4C22103
(1631416516.730029) can0 144#C0009A1503288806
(1631416516.731110) can0 002#005A700FD9000000
(1631416516.732137) can0 280#0303100000000000
(1631416516.736182) can0 0D0#A7FF00000000FF01
(1631416516.737250) can0 0D1#00000080
(1631416516.737250) can0 0D2#0000FFFF00200000
(1631416516.737250) can0 0D3#8006E00F000076
(1631416516.737251) can0 0D4#0000000000000000
(1631416516.738546) can0 140#00CCFF42000009A1
(1631416516.739717) can0 141#73261027F4C22103
(1631416516.739717) can0 360#AA01007F16469100
(1631416516.739718) can0 361#003200D800000000
(1631416516.741006) can0 002#005A7001CB000000
(1631416516.742143) can0 156#010000000000001A
(1631416516.747077) can0 152#E9BC00000000148C
(1631416516.748600) can0 140#00CDFF4200000921
(1631416516.749650) can0 141#73261027F6822103
(1631416516.749651) can0 144#C001971503288806
(1631416516.750964) can0 002#005A7003CD000000
(1631416516.752087) can0 280#0304100000000000
(1631416516.756120) can0 0D0#A8FF00000000FF01
(1631416516.757224) can0 0D1#00000080
(1631416516.757224) can0 0D2#0000FFFF00200000
(1631416516.757225) can0 0D3#0006E00F000077
(1631416516.757225) can0 0D4#0000000000000000
(1631416516.758590) can0 25C#A700000000000000
(1631416516.759596) can0 140#00CEFF4200000921
(1631416516.759597) can0 141#73261027F8C22103
(1631416516.759597) can0 378#6100000000000000
(1631416516.761070) can0 002#005A7005CF000000
(1631416516.762119) can0 156#010000000000001A
(1631416516.763141) can0 282#9E50008E91C02A04
(1631416516.763142) can0 6D0#0000000000000000
(1631416516.763143) can0 372#0080000000000000
(1631416516.766066) can0 284#010B000E00000000
(1631416516.767081) can0 152#E1CC00000000148C
(1631416516.768640) can0 140#00CFFF42000009A1
(1631416516.769778) can0 141#73261027F9822103
(1631416516.769779) can0 144#C001971503288806
(1631416516.771033) can0 002#005A7007D1000000
(1631416516.772063) can0 280#0305100000000000
(1631416516.776075) can0 0D0#A8FF00000000FF01
(1631416516.777234) can0 0D1#00000080
(1631416516.777235) can0 0D2#0000FFFF00200000
(1631416516.777235) can0 0D3#0006E00F000078
(1631416516.777236) can0 0D4#0000000000000000
(1631416516.777236) can0 376#FA03
(1631416516.778691) can0 140#00C0F84200000921
(1631416516.779681) can0 141#73261027FA822103
(1631416516.781026) can0 002#005A7009D3000000
(1631416516.782111) can0 156#010000000000001A
(1631416516.787070) can0 152#E9DC00000000148C
(1631416516.788667) can0 140#00C1F842000009A1
(1631416516.789742) can0 141#73261027F9822103
(1631416516.789742) can0 144#C000991503288806
(1631416516.789743) can0 360#A401007F16469100
(1631416516.789743) can0 361#002200D801000000
(1631416516.790766) can0 6FC#09000000000C3800
(1631416516.791761) can0 002#005A700BD5000000
(1631416516.791761) can0 280#0306100000000000
(1631416516.796181) can0 0D0#A8FF00000000FF01
(1631416516.797209) can0 0D1#00000080
(1631416516.797210) can0 0D2#0000FFFF00200000
(1631416516.797210) can0 0D3#8006E00F000079
(1631416516.797211) can0 0D4#0000000000000000
(1631416516.798620) can0 140#00C2F842000009A1
(1631416516.799650) can0 141#73261027F9822103
(1631416516.801077) can0 002#005A700DD7000000
(1631416516.802268) can0 156#010000000000001A
(1631416516.807014) can0 152#E9EC00000000148C
(1631416516.808543) can0 140#00C3F84200000921
(1631416516.809640) can0 141#73261027F9822103
(1631416516.809641) can0 144#C000991503288806
(1631416516.811121) can0 002#005A700FD9000000
(1631416516.812108) can0 280#0307100000000000
(1631416516.813147) can0 282#9E60008E91C02A04
(1631416516.813147) can0 380#1D0A000000000027
(1631416516.816051) can0 0D0#A8FF00000000FF01
(1631416516.817226) can0 0D1#00000080
(1631416516.817227) can0 0D2#0000FFFF00200000
(1631416516.817227) can0 0D3#8006E00F00007A
(1631416516.817227) can0 0D4#0000000000000000
(1631416516.818242) can0 25C#2000000000000000
(1631416516.819236) can0 140#00C4FF4200000921
(1631416516.819236) can0 141#73261027F9822103
(1631416516.821121) can0 002#005A7001CB000000
(1631416516.822133) can0 156#010000000000001A
(1631416516.823141) can0 3D1#E310000075000006
(1631416516.827016) can0 152#E1FC00000000148C
(1631416516.828061) can0 376#FA03
(1631416516.828910) can0 140#00C5FF42000009A1
(1631416516.828910) can0 141#73261027F9822103
(1631416516.830038) can0 144#C001971503288806
(1631416516.831111) can0 002#005A7003CD000000
(1631416516.832090) can0 280#0308100000000000
(1631416516.836037) can0 0D0#A8FF00000000FF01
(1631416516.836994) can0 0D1#00000080
(1631416516.836994) can0 0D2#0000FFFF00200000
(1631416516.836994) can0 0D3#0006E00F00007B
(1631416516.836995) can0 0D4#0000000000000000
(1631416516.838364) can0 140#00C6FF42000009A1
(1631416516.839395) can0 141#73261027FBC22103
(1631416516.839395) can0 360#A701007F16469100
(1631416516.839396) can0 361#002200D802000000
(1631416516.840850) can0 002#005A7005CF000000
(1631416516.841829) can0 156#010000000000001A
(1631416516.846787) can0 152#E10C00000000148C
(1631416516.848339) can0 140#00C7FF4200000921
(1631416516.849304) can0 141#73261027FBC22103
(1631416516.849304) can0 144#C000971503288006
(1631416516.850779) can0 002#005A7007D1000000
(1631416516.851817) can0 280#0309100000000000
(1631416516.855977) can0 0D0#A8FF00000000FF01
(1631416516.856990) can0 0D1#00000080
(1631416516.856990) can0 0D2#0000FFFF00200000
(1631416516.856990) can0 0D3#0006C00F00007C
(1631416516.856990) can0 0D4#0000000000000000
(1631416516.858432) can0 140#00C8F34200000921
(1631416516.859485) can0 141#73261027FC822103
(1631416516.860888) can0 002#005A7009D3000000
(1631416516.861899) can0 156#010000000000001A
(1631416516.863147) can0 282#9F70008E91C02A04
(1631416516.864034) can0 372#0098000000000000
(1631416516.866341) can0 284#010C000E00000000
(1631416516.867315) can0 152#E11C00000000048C
(1631416516.867316) can0 154#00000000000002
(1631416516.868652) can0 140#00C9F342000009A1
(1631416516.869637) can0 141#73261027FBC22103
(1631416516.869638) can0 144#C0019A1503288006
(1631416516.871050) can0 002#005A700BD5000000
(1631416516.872077) can0 280#030A100000000000
(1631416516.876157) can0 0D0#A8FF00000000FF01
(1631416516.877264) can0 0D1#00000080
(1631416516.877264) can0 0D2#0000FFFF00200000
(1631416516.877265) can0 0D3#8006C00F00007D
(1631416516.877266) can0 0D4#0000000000000000
(1631416516.877266) can0 376#FA03
(1631416516.878712) can0 140#00CAF342000009A1
(1631416516.879795) can0 141#73261027F9822103
(1631416516.879796) can0 25C#A100000000000000
(1631416516.880989) can0 002#005A700DD7000000
(1631416516.882236) can0 156#010000000000001A
(1631416516.887086) can0 152#E12C00000000048C
(1631416516.888700) can0 140#00CBF34200000921
(1631416516.889739) can0 141#73261027F8C22103
(1631416516.889740) can0 144#C0019A1503288006
(1631416516.889740) can0 360#A101007F16469100
(1631416516.889741) can0 361#003200D803000000
(1631416516.890721) can0 6FC#0A000000000D3300
(1631416516.891733) can0 002#005A700FD9000000
(1631416516.891734) can0 280#030B100000000000
(1631416516.896143) can0 0D0#A8FF00000000FF01
(1631416516.897054) can0 0D1#00000080
(1631416516.897054) can0 0D2#0000FFFF00200000
(1631416516.897055) can0 0D3#8006C00F00007E
(1631416516.897055) can0 0D4#0000000000000000
(1631416516.898403) can0 140#00CCF84200000921
(1631416516.899405) can0 141#73261027F7C22103
(1631416516.900980) can0 002#005A7001CB000000
(1631416516.902283) can0 156#010000000000001A
(1631416516.906969) can0 152#E93C00000000048C
(1631416516.908559) can0 140#00CDF842000009A1
(1631416516.909594) can0 141#73261027F7C22103
(1631416516.909595) can0 144#C001991503288006
(1631416516.911204) can0 280#030C100000000000
(1631416516.912076) can0 002#005A7003CD000000
(1631416516.913246) can0 282#9F80008E91C02A04
(1631416516.913247) can0 380#1E0A000000000028
(1631416516.916195) can0 0D0#A8FF00000000FF01
(1631416516.917326) can0 0D1#00000080
(1631416516.917327) can0 0D2#0000FFFF00200000
(1631416516.917328) can0 0D3#0006C00F00007F
(1631416516.917328) can0 0D4#0000000000000000
(1631416516.918626) can0 140#00CEF842000009A1
(1631416516.919793) can0 141#73261027F7C22103
(1631416516.921069) can0 002#005A7005CF000000
(1631416516.922184) can0 156#010000000000001A
(1631416516.923203) can0 3D1#E310000075000006
(1631416516.927067) can0 152#E14C00000000048C
(1631416516.928129) can0 376#FA03
(1631416516.928992) can0 140#00CFF84200000921
(1631416516.928993) can0 141#73261027F7C22103
(1631416516.930123) can0 144#C001991503288006
(1631416516.931166) can0 280#030D100000000000
(1631416516.932179) can0 002#005A7007D1000000
(1631416516.936251) can0 0D0#A8FF00000000FF01
(1631416516.937360) can0 0D1#00000080
(1631416516.937361) can0 0D2#0000FFFF00200000
(1631416516.937362) can0 0D3#0006C00F000080
(1631416516.937362) can0 0D4#0000000000000000
(1631416516.938301) can0 25C#A200000000000000
(1631416516.939331) can0 140#00C0EA4200000921
(1631416516.939332) can0 141#73261027F7C22103
(1631416516.939333) can0 360#9C01007F16469100
(1631416516.940114) can0 361#002200D804000000
(1631416516.941392) can0 002#005A7009D3000000
(1631416516.942404) can0 156#010000000000001A
(1631416516.947078) can0 152#E95C00000000048C
(1631416516.948766) can0 140#00C1EA42000009A1
(1631416516.949477) can0 141#73261027F6822103
(1631416516.949478) can0 144#C0019C1503288006
(1631416516.951140) can0 280#030E100000000000
(1631416516.952176) can0 002#005A700BD5000000
(1631416516.956245) can0 0D0#A8FF00000000FF01
(1631416516.957116) can0 0D1#00000080
(1631416516.957117) can0 0D2#0000FFFF00200000
(1631416516.957117) can0 0D3#8006C00F000081
(1631416516.957117) can0 0D4#0000000000000000
(1631416516.958088) can0 6FA#08C1002801
(1631416516.959245) can0 140#00C2EA42000009A1
(1631416516.959246) can0 141#73261027F3822103
(1631416516.961155) can0 002#005A700DD7000000
(1631416516.962122) can0 156#010000000000001A
(1631416516.963157) can0 282#9E90008E91C02A04
(1631416516.963158) can0 6D0#0000000000000000
(1631416516.964071) can0 372#00A8000000000000
(1631416516.966105) can0 284#010D000E00000000
(1631416516.967201) can0 152#E96C00000000048C
(1631416516.968613) can0 140#00C3EA4200000921
(1631416516.969557) can0 141#73261027F2C22103
(1631416516.969558) can0 144#C0019C1503288006
(1631416516.971005) can0 280#030F100000000000
(1631416516.972051) can0 002#005A700FD9000000
(1631416516.976099) can0 0D0#A8FF00000000FF01
(1631416516.977144) can0 0D1#00000080
(1631416516.977145) can0 0D2#0000FFFF00200000
(1631416516.977145) can0 0D3#8006C00F000082
(1631416516.977146) can0 0D4#0000000000000000
(1631416516.977146) can0 376#FA03
(1631416516.978267) can0 6FB#0900000000
(1631416516.979240) can0 140#00C4F34200000921
(1631416516.979241) can0 141#73261027F1C22103
(1631416516.981110) can0 002#005A7001CB000000
(1631416516.982122) can0 156#010000000000001A
(1631416516.987068) can0 152#E17C00000000048C
(1631416516.988494) can0 140#00C5F342000009A1
(1631416516.989619) can0 141#73261027F1C22103
(1631416516.989620) can0 144#C0019A1503288006
(1631416516.989620) can0 360#A201007F16469100
(1631416516.989620) can0 361#003200D805000000
(1631416516.990660) can0 6FC#0B000000000E3300
(1631416516.991635) can0 280#0300100000000000
(1631416516.991636) can0 002#005A7003CD000000
(1631416516.996252) can0 0D0#A8FF00000000FF01
(1631416516.997231) can0 0D1#00000080
(1631416516.997232) can0 0D2#0000FFFF00200000
(1631416516.997232) can0 0D3#0006C00F000083
(1631416516.997232) can0 0D4#0000000000000000
(1631416516.998614) can0 140#00C6F342000009A1
(1631416516.999697) can0 141#73261027F1C22103
(1631416516.999697) can0 25C#2300000000000000
(1631416517.001009) can0 002#005A7005CF000000
(1631416517.002325) can0 156#010000000000001A
(1631416517.003249) can0 6C8#9004806900000000
(1631416517.007131) can0 152#E18C00000000048C
(1631416517.008574) can0 140#00C7F34200000921
(1631416517.009624) can0 141#73261027F2C22103
(1631416517.009625) can0 144#C0019A1503288006
(1631416517.010991) can0 280#0301100000000000
(1631416517.012107) can0 002#005A7007D1000000
(1631416517.012934) can0 282#9EA0008E91C02A04
(1631416517.013930) can0 380#1F0A000000000029
(1631416517.016226) can0 0D0#A8FF00000000FF01
(1631416517.017221) can0 0D1#00000080
(1631416517.017222) can0 0D2#0000FFFF00200000
(1631416517.017223) can0 0D3#8006C00F000084
(1631416517.017223) can0 0D4#0000000000000000
(1631416517.018495) can0 140#00C8E84200000921
(1631416517.019611) can0 141#73261027F2C22103
(1631416517.021057) can0 002#005A7009D3000000
(1631416517.021929) can0 156#010000000000001A
(1631416517.023141) can0 3D1#E310000075000006
(1631416517.027014) can0 152#E99C00000000048C
(1631416517.028004) can0 376#FA03
(1631416517.029020) can0 140#00C9E842000009A1
(1631416517.029021) can0 141#73261027F1C22103
(1631416517.030021) can0 144#C0019C1503288006
(1631416517.031099) can0 280#0302100000000000
(1631416517.032077) can0 002#005A700BD5000000
(1631416517.036049) can0 0D0#A8FF00000000FF01
(1631416517.037238) can0 0D1#00000080
(1631416517.037239) can0 0D2#0000FFFF00200000
(1631416517.037240) can0 0D3#0006C00F000085
(1631416517.037240) can0 0D4#0000000000000000
(1631416517.038501) can0 140#00CAE842000009A1
(1631416517.039619) can0 141#73261027EFC22103
(1631416517.039620) can0 360#9E01007F16469100
(1631416517.039620) can0 361#003200D806000000
(1631416517.041033) can0 002#005A700DD7000000
(1631416517.042135) can0 156#010000000000001A
(1631416517.046998) can0 152#E9AC00000000048C
(1631416517.048584) can0 140#00CBE84200000921
(1631416517.049616) can0 141#73261027EE822103
(1631416517.049616) can0 144#C0019C1503288006
(1631416517.050905) can0 280#0303100000000000
(1631416517.052080) can0 002#005A700FD9000000
(1631416517.056113) can0 0D0#A8FF00000000FF01
(1631416517.057190) can0 0D1#00000080
(1631416517.057191) can0 0D2#0000FFFF00200000
(1631416517.057191) can0 0D3#0006C00F000086
(1631416517.057191) can0 0D4#0000000000000000
(1631416517.058207) can0 25C#A400000000000000
(1631416517.059212) can0 140#00CCF14200000921
(1631416517.059213) can0 141#73261027ED822103
(1631416517.061014) can0 002#005A7001CB000000
(1631416517.062030) can0 156#010000000000001A
(1631416517.063140) can0 282#9FB0008E91C02A04
(1631416517.064058) can0 372#00B0000000000000
(1631416517.065937) can0 284#010E000E00000000
(1631416517.067056) can0 152#E1BC00000000048C
(1631416517.068490) can0 140#00CDF142000009A1
(1631416517.069622) can0 141#73261027EE822103
(1631416517.069622) can0 144#C0019A1503288006
(1631416517.071083) can0 280#0304100000000000
(1631416517.072057) can0 002#005A7003CD000000
(1631416517.076049) can0 0D0#A8FF00000000FF01
(1631416517.077222) can0 0D1#00000080
(1631416517.077222) can0 0D2#0000FFFF00200000
(1631416517.077223) can0 0D3#8006C00F000087
(1631416517.077223) can0 0D4#0000000000000000
(1631416517.077223) can0 376#FA03
(1631416517.078517) can0 140#00CEF142000009A1
(1631416517.079593) can0 141#73261027EFC22103
(1631416517.081109) can0 002#005A7005CF000000
(1631416517.082139) can0 156#010000000000001A
(1631416517.087064) can0 152#E9CC00000000048C
(1631416517.088521) can0 140#00CFF14200000921
(1631416517.089704) can0 141#73261027EFC22103
(1631416517.089705) can0 144#C0019A1503288006
(1631416517.089705) can0 360#A401007F16469100
(1631416517.089706) can0 361#002200D807000000
(1631416517.090680) can0 6FC#0C000000000F3200
(1631416517.091820) can0 280#0305100000000000
(1631416517.091821) can0 002#005A7007D1000000
(1631416517.096148) can0 0D0#A8FF00000000FF01
(1631416517.097328) can0 0D1#00000080
(1631416517.097329) can0 0D2#0000FFFF00200000
(1631416517.097329) can0 0D3#8006C00F000088
(1631416517.097330) can0 0D4#0000000000000000
(1631416517.098686) can0 140#00C0ED42000009A1
(1631416517.099607) can0 141#73261027EFC22103
(1631416517.101121) can0 002#005A7009D3000000
(1631416517.102447) can0 156#010000000000001A
(1631416517.107056) can0 152#E1DC00000000048C
(1631416517.108662) can0 140#00C1ED4200000921
(1631416517.109721) can0 141#73261027EFC22103
(1631416517.109722) can0 144#C0009B1503288006
(1631416517.111068) can0 280#0306100000000000
(1631416517.112174) can0 002#005A700BD5000000
(1631416517.112973) can0 282#9FC0008E91C02A04
(1631416517.114088) can0 380#100A00000000001A
(1631416517.116197) can0 0D0#A8FF00000000FF01
(1631416517.117208) can0 0D1#00000080
(1631416517.117209) can0 0D2#0000FFFF00200000
(1631416517.117209) can0 0D3#0006C00F000089
(1631416517.117210) can0 0D4#0000000000000000
(1631416517.118584) can0 140#00C2ED4200000921
(1631416517.119709) can0 141#73261027EE822103
(1631416517.119710) can0 25C#2500000000000000
(1631416517.121151) can0 002#005A700DD7000000
(1631416517.122186) can0 156#010000000000001A
(1631416517.123030) can0 3D1#E310000075000006
(1631416517.127066) can0 152#E1EC00000000048C
(1631416517.127998) can0 376#FA03
(1631416517.127999) can0 660#FFFF01DD0000041D
(1631416517.128988) can0 140#00C3ED42000009A1
(1631416517.128989) can0 141#73261027EE822103
(1631416517.130094) can0 144#C0009B1503288006
(1631416517.131192) can0 280#0307100000000000
(1631416517.132142) can0 002#005A700FD9000000
(1631416517.132143) can0 281#2894505070000000
